 time             v(vi)            v(vo)           
 1.900000000e-09  6.574023086e-01  6.315950630e-01 
 3.900000000e-09  7.155011226e-01  6.909764418e-01 
 5.900000000e-09  7.688712693e-01  7.466456722e-01 
 7.900000000e-09  8.153278200e-01  7.963164156e-01 
 9.900000000e-09  8.529687820e-01  8.379545945e-01 
 1.190000000e-08  8.802531287e-01  8.698552523e-01 
 1.390000000e-08  8.960638833e-01  8.907113808e-01 
 1.590000000e-08  8.997537600e-01  8.996679929e-01 
 1.790000000e-08  8.911716650e-01  8.963579493e-01 
 1.990000000e-08  8.706689881e-01  8.809121556e-01 
 2.190000000e-08  8.390851106e-01  8.539650555e-01 
 2.390000000e-08  7.977130577e-01  8.166149582e-01 
 2.590000000e-08  7.482466480e-01  7.703919846e-01 
 2.790000000e-08  6.927110158e-01  7.171894779e-01 
 2.990000000e-08  6.333798030e-01  6.591868029e-01 
 3.190000000e-08  5.726820209e-01  5.987563306e-01 
 3.390000000e-08  5.131026426e-01  5.383792921e-01 
 3.590000000e-08  4.570808282e-01  4.805259340e-01 
 3.790000000e-08  4.069101344e-01  4.275682279e-01 
 3.990000000e-08  3.646445242e-01  3.816728879e-01 
 4.190000000e-08  3.320143921e-01  3.447212583e-01 
 4.390000000e-08  3.103555817e-01  3.182235477e-01 
 4.590000000e-08  3.005548258e-01  3.032652817e-01 
 4.790000000e-08  3.030134356e-01  3.004568737e-01 
 4.990000000e-08  3.176306564e-01  3.099107778e-01 
 5.190000000e-08  3.438081689e-01  3.312408703e-01 
 5.390000000e-08  3.804742104e-01  3.635698024e-01 
 5.590000000e-08  4.261277038e-01  4.055747269e-01 
 5.790000000e-08  4.788995499e-01  4.555332385e-01 
 5.990000000e-08  5.366292878e-01  5.114044514e-01 
 6.190000000e-08  5.969534375e-01  5.708973433e-01 
 6.390000000e-08  6.574023128e-01  6.315836986e-01 
 6.590000000e-08  7.155011240e-01  6.909765154e-01 
 6.790000000e-08  7.688712776e-01  7.466463974e-01 
 6.990000000e-08  8.153277950e-01  7.963156705e-01 
 7.190000000e-08  8.529687542e-01  8.379545381e-01 
 1.900000000e-09  7.126835451e-01  6.628251575e-01 
 3.900000000e-09  8.131955171e-01  7.733480698e-01 
 5.900000000e-09  8.791517200e-01  8.558260071e-01 
 7.900000000e-09  8.998616613e-01  8.968730137e-01 
 9.900000000e-09  8.719686993e-01  8.898143971e-01 
 1.190000000e-08  7.999939413e-01  8.357690993e-01 
 1.390000000e-08  6.956035213e-01  7.434747226e-01 
 1.590000000e-08  5.757173604e-01  6.278957686e-01 
 1.790000000e-08  4.597670176e-01  5.077888214e-01 
 1.990000000e-08  3.665460687e-01  4.026470801e-01 
 2.190000000e-08  3.111641774e-01  3.295272413e-01 
 2.390000000e-08  3.025980866e-01  3.002732075e-01 
 2.590000000e-08  3.422360708e-01  3.196086335e-01 
 2.790000000e-08  4.236538525e-01  3.843700224e-01 
 2.990000000e-08  5.336546659e-01  4.840501778e-01 
 3.190000000e-08  6.544091396e-01  6.025001488e-01 
 3.390000000e-08  7.663446297e-01  7.205406070e-01 
 3.590000000e-08  8.513180894e-01  8.190668717e-01 
 3.790000000e-08  8.955567615e-01  8.821210639e-01 
 3.990000000e-08  8.918900923e-01  8.994729539e-01 
 4.190000000e-08  8.409128241e-01  8.682877874e-01 
 4.390000000e-08  7.508874342e-01  7.935890515e-01 
 4.590000000e-08  6.364056534e-01  6.874781864e-01 
 4.790000000e-08  5.160232028e-01  5.671692263e-01 
 4.990000000e-08  4.092519081e-01  4.521879084e-01 
 5.190000000e-08  3.333977589e-01  3.611946452e-01 
 5.390000000e-08  3.007555751e-01  3.089399879e-01 
 5.590000000e-08  3.166162036e-01  3.038783413e-01 
 5.790000000e-08  3.784089910e-01  3.468096064e-01 
 5.990000000e-08  4.761183666e-01  4.307504395e-01 
 6.190000000e-08  5.939071892e-01  5.420915118e-01 
 6.390000000e-08  7.126835295e-01  6.628042934e-01 
 6.590000000e-08  8.131955474e-01  7.733480993e-01 
 6.790000000e-08  8.791516899e-01  8.558266588e-01 
 6.990000000e-08  8.998615782e-01  8.968710000e-01 
 7.190000000e-08  8.719686174e-01  8.898141715e-01 
 1.900000000e-09  7.638007824e-01  6.933462363e-01 
 3.900000000e-09  8.780214129e-01  8.393794186e-01 
 5.900000000e-09  8.925783625e-01  8.997400219e-01 
 7.900000000e-09  8.022541202e-01  8.526829486e-01 
 9.900000000e-09  6.394277293e-01  7.149555280e-01 
 1.190000000e-08  4.624675954e-01  5.359352376e-01 
 1.390000000e-08  3.348089207e-01  3.799274213e-01 
 1.590000000e-08  3.022134726e-01  3.029129387e-01 
 1.790000000e-08  3.763666133e-01  3.324370038e-01 
 1.990000000e-08  5.306869428e-01  4.578069832e-01 
 2.190000000e-08  7.098543124e-01  6.340606464e-01 
 2.390000000e-08  8.496416172e-01  7.981159552e-01 
 2.590000000e-08  8.999385091e-01  8.912562248e-01 
 2.790000000e-08  8.427155384e-01  8.800563138e-01 
 2.990000000e-08  6.984861728e-01  7.684083122e-01 
 3.190000000e-08  5.189524119e-01  5.962900439e-01 
 3.390000000e-08  3.684717954e-01  4.254947206e-01 
 3.590000000e-08  3.009873097e-01  3.173568541e-01 
 3.790000000e-08  3.406906871e-01  3.106145421e-01 
 3.990000000e-08  4.733499328e-01  4.075729141e-01 
 4.190000000e-08  6.514103445e-01  5.734136844e-01 
 4.390000000e-08  8.110411845e-01  7.487544509e-01 
 4.590000000e-08  8.950192226e-01  8.708560504e-01 
 4.790000000e-08  8.732402280e-01  8.959589226e-01 
 4.990000000e-08  7.535126494e-01  8.149525358e-01 
 5.190000000e-08  5.787551905e-01  6.567865799e-01 
 5.390000000e-08  4.116135082e-01  4.782208078e-01 
 5.590000000e-08  3.120027083e-01  3.433828418e-01 
 5.790000000e-08  3.156310115e-01  3.006353930e-01 
 5.990000000e-08  4.211981451e-01  3.652052473e-01 
 6.190000000e-08  5.908615670e-01  5.138502932e-01 
 6.390000000e-08  7.638009523e-01  6.933159116e-01 
 6.590000000e-08  8.780215163e-01  8.393794979e-01 
 6.790000000e-08  8.925783492e-01  8.997407332e-01 
 6.990000000e-08  8.022542833e-01  8.526830142e-01 
 7.190000000e-08  6.394277304e-01  7.149560594e-01 
 1.900000000e-09  8.088650190e-01  7.228128566e-01 
 3.900000000e-09  8.999847603e-01  8.828787117e-01 
 5.900000000e-09  8.044935092e-01  8.671926132e-01 
 7.900000000e-09  5.817952271e-01  6.851509938e-01 
 9.900000000e-09  3.704215703e-01  4.500063775e-01 
 1.190000000e-08  3.018595433e-01  3.083491089e-01 
 1.390000000e-08  4.187610819e-01  3.482521801e-01 
 1.590000000e-08  6.484062819e-01  5.445982122e-01 
 1.790000000e-08  8.479391599e-01  7.753067265e-01 
 1.990000000e-08  8.932364113e-01  8.971608674e-01 
 2.190000000e-08  7.561218814e-01  8.342726848e-01 
 2.390000000e-08  5.218900368e-01  6.254593376e-01 
 2.590000000e-08  3.362470283e-01  4.007510240e-01 
 2.790000000e-08  3.146747745e-01  3.002082519e-01 
 2.990000000e-08  4.705947095e-01  3.862153366e-01 
 3.190000000e-08  7.070138331e-01  6.050162605e-01 
 3.390000000e-08  8.768627859e-01  8.206717077e-01 
 3.590000000e-08  8.744837651e-01  8.992877548e-01 
 3.790000000e-08  7.013585144e-01  7.917457764e-01 
 3.990000000e-08  4.651825624e-01  5.647149766e-01 
 4.190000000e-08  3.128709392e-01  3.596656831e-01 
 4.390000000e-08  3.391721588e-01  3.043452595e-01 
 4.590000000e-08  5.277263601e-01  4.329148180e-01 
 4.790000000e-08  7.612400001e-01  6.652286945e-01 
 4.990000000e-08  8.944508443e-01  8.570291759e-01 
 5.190000000e-08  8.444932931e-01  8.891602219e-01 
 5.390000000e-08  6.424457508e-01  7.413487986e-01 
 5.590000000e-08  4.139943458e-01  5.054185209e-01 
 5.790000000e-08  3.012498216e-01  3.284422127e-01 
 5.990000000e-08  3.743473784e-01  3.205838842e-01 
 6.190000000e-08  5.878168758e-01  4.864352361e-01 
 6.390000000e-08  8.088654425e-01  7.227744124e-01 
 6.590000000e-08  8.999842133e-01  8.828767621e-01 
 6.790000000e-08  8.044937949e-01  8.671931394e-01 
 6.990000000e-08  5.817952246e-01  6.851519712e-01 
 7.190000000e-08  3.704215541e-01  4.500044698e-01 
 1.900000000e-09  8.462114179e-01  7.509032693e-01 
 3.900000000e-09  8.756991270e-01  8.997703312e-01 
 5.900000000e-09  6.454593959e-01  7.664027804e-01 
 7.900000000e-09  3.723948754e-01  4.759486085e-01 
 9.900000000e-09  3.137487290e-01  3.026047811e-01 
 1.190000000e-08  5.247731658e-01  4.096038521e-01 
 1.390000000e-08  8.066676572e-01  6.956586249e-01 
 1.590000000e-08  8.938641074e-01  8.917625969e-01 
 1.790000000e-08  7.042207305e-01  8.132596835e-01 
 1.990000000e-08  4.163948655e-01  5.335263650e-01 
 2.190000000e-08  3.015363550e-01  3.165376484e-01 
 2.390000000e-08  4.678528753e-01  3.668749348e-01 
 2.590000000e-08  7.586625868e-01  6.365503006e-01 
 2.790000000e-08  8.999991468e-01  8.718222321e-01 
 2.990000000e-08  7.587148355e-01  8.513633431e-01 
 3.190000000e-08  4.679114752e-01  5.938351481e-01 
 3.390000000e-08  3.015434628e-01  3.420903409e-01 
 3.590000000e-08  4.163425375e-01  3.336719166e-01 
 3.790000000e-08  7.041623166e-01  5.759463660e-01 
 3.990000000e-08  8.938526115e-01  8.407810008e-01 
 4.190000000e-08  8.067119939e-01  8.791570934e-01 
 4.390000000e-08  5.248356890e-01  6.543945696e-01 
 4.590000000e-08  3.137691067e-01  3.782259308e-01 
 4.790000000e-08  3.723515989e-01  3.113589256e-01 
 4.990000000e-08  6.453970919e-01  5.163221198e-01 
 5.190000000e-08  8.756749096e-01  7.999020618e-01 
 5.390000000e-08  8.462459392e-01  8.955129315e-01 
 5.590000000e-08  5.848370854e-01  7.127128151e-01 
 5.790000000e-08  3.377124821e-01  4.234614049e-01 
 5.990000000e-08  3.376800821e-01  3.008570832e-01 
 6.190000000e-08  5.847734301e-01  4.601083993e-01 
 6.390000000e-08  8.462114282e-01  7.508597672e-01 
 6.590000000e-08  8.756990494e-01  8.997693083e-01 
 6.790000000e-08  6.454594440e-01  7.664030038e-01 
 6.990000000e-08  3.723949002e-01  4.759486055e-01 
 7.190000000e-08  3.137489478e-01  3.026050511e-01 
 1.900000000e-09  8.744583969e-01  7.773011146e-01 
 3.900000000e-09  8.089088393e-01  8.884620535e-01 
 5.900000000e-09  4.706538325e-01  6.230238546e-01 
 7.900000000e-09  3.012446063e-01  3.274037052e-01 
 9.900000000e-09  5.218276123e-01  3.880906726e-01 
 1.190000000e-08  8.444582891e-01  7.250084748e-01 
 1.390000000e-08  8.479726981e-01  8.990545545e-01 
 1.590000000e-08  5.277889425e-01  6.828176750e-01 
 1.790000000e-08  3.018666383e-01  3.581841325e-01 
 1.990000000e-08  4.651241696e-01  3.497302090e-01 
 2.190000000e-08  8.044490138e-01  6.676601022e-01 
 2.390000000e-08  8.768847347e-01  8.974073824e-01 
 2.590000000e-08  5.878805121e-01  7.392076436e-01 
 2.790000000e-08  3.146962036e-01  3.988932980e-01 
 2.990000000e-08  4.139433077e-01  3.215989542e-01 
 3.190000000e-08  7.560688983e-01  6.075465542e-01 
 3.390000000e-08  8.944619730e-01  8.836004055e-01 
 3.590000000e-08  6.484681763e-01  7.898739909e-01 
 3.790000000e-08  3.392058951e-01  4.478600929e-01 
 3.990000000e-08  3.703790851e-01  3.048542058e-01 
 4.190000000e-08  7.012998498e-01  5.471203608e-01 
 4.390000000e-08  8.999835806e-01  8.582062151e-01 
 4.590000000e-08  7.070720296e-01  8.327405536e-01 
 4.790000000e-08  3.743912474e-01  5.030779538e-01 
 4.990000000e-08  3.362159725e-01  3.001880787e-01 
 5.190000000e-08  6.423833333e-01  4.888469812e-01 
 5.390000000e-08  8.932235576e-01  8.222662396e-01 
 5.590000000e-08  7.612917135e-01  8.660551424e-01 
 5.790000000e-08  4.188139326e-01  5.622764966e-01 
 5.990000000e-08  3.128518797e-01  3.078056488e-01 
 6.190000000e-08  5.817315842e-01  4.351045138e-01 
 6.390000000e-08  8.744590959e-01  7.772551285e-01 
 6.590000000e-08  8.089086677e-01  8.884611469e-01 
 6.790000000e-08  4.706537966e-01  6.230244620e-01 
 6.990000000e-08  3.012440663e-01  3.274036046e-01 
 7.190000000e-08  5.218277048e-01  3.880913046e-01 
 1.900000000e-09  8.925649297e-01  8.017171625e-01 
 3.900000000e-09  7.099117951e-01  8.499979524e-01 
 5.900000000e-09  3.407254489e-01  4.737081655e-01 
 7.900000000e-09  4.115630966e-01  3.121446130e-01 
 9.900000000e-09  8.022080579e-01  6.390451891e-01 
 1.190000000e-08  8.496743031e-01  8.997545028e-01 
 1.390000000e-08  4.734095043e-01  6.519987959e-01 
 1.590000000e-08  3.119850713e-01  3.157689614e-01 
 1.790000000e-08  6.393651722e-01  4.624303455e-01 
 1.990000000e-08  8.999366154e-01  8.421575377e-01 
 2.190000000e-08  6.514722584e-01  8.115300798e-01 
 2.390000000e-08  3.156533594e-01  4.214715084e-01 
 2.590000000e-08  4.624095566e-01  3.349418987e-01 
 2.790000000e-08  8.426793591e-01  6.980006049e-01 
 2.990000000e-08  8.110839358e-01  8.950215333e-01 
 3.190000000e-08  4.212514143e-01  5.913932548e-01 
 3.390000000e-08  3.347787356e-01  3.023450054e-01 
 3.590000000e-08  6.984267252e-01  5.188082319e-01 
 3.790000000e-08  8.950291006e-01  8.727611969e-01 
 3.990000000e-08  5.909252444e-01  7.643750756e-01 
 4.190000000e-08  3.022214179e-01  3.765695094e-01 
 4.390000000e-08  5.188906647e-01  3.685756946e-01 
 4.590000000e-08  8.732148540e-01  7.529555924e-01 
 4.790000000e-08  7.638519948e-01  8.782105366e-01 
 4.990000000e-08  3.764115574e-01  5.311370649e-01 
 5.190000000e-08  3.684307029e-01  3.011234557e-01 
 5.390000000e-08  7.534587556e-01  5.784908822e-01 
 5.590000000e-08  8.780425860e-01  8.922280459e-01 
 5.790000000e-08  5.307498304e-01  7.104590184e-01 
 5.990000000e-08  3.009834352e-01  3.408476138e-01 
 6.190000000e-08  5.786915511e-01  4.116608502e-01 
 6.390000000e-08  8.925647706e-01  8.016720191e-01 
 6.590000000e-08  7.099119768e-01  8.499984467e-01 
 6.790000000e-08  3.407257036e-01  4.737076240e-01 
 6.990000000e-08  4.115626713e-01  3.121456221e-01 
 7.190000000e-08  8.022079677e-01  6.390450378e-01 
 1.900000000e-09  8.998579357e-01  8.238828445e-01 
 3.900000000e-09  5.939708338e-01  7.879688361e-01 
 5.900000000e-09  3.007528626e-01  3.567481505e-01 
 7.900000000e-09  6.363430090e-01  4.373157628e-01 
 9.900000000e-09  8.955648752e-01  8.593539702e-01 
 1.190000000e-08  5.337179269e-01  7.370439045e-01 
 1.390000000e-08  3.111478983e-01  3.264131179e-01 
 1.590000000e-08  6.955438699e-01  4.912721561e-01 
 1.790000000e-08  8.791725742e-01  8.842870876e-01 
 1.990000000e-08  4.761786460e-01  6.804777936e-01 
 2.190000000e-08  3.333671520e-01  3.073113143e-01 
 2.390000000e-08  7.508330888e-01  5.496531807e-01 
 2.590000000e-08  8.513498984e-01  8.976128426e-01 
 2.790000000e-08  4.237080162e-01  6.205942761e-01 
 2.990000000e-08  3.665060877e-01  3.002141126e-01 
 3.190000000e-08  7.999479718e-01  6.100809141e-01 
 3.390000000e-08  8.132373053e-01  8.987760495e-01 
 3.590000000e-08  3.784555298e-01  5.598550054e-01 
 3.790000000e-08  4.092013069e-01  3.054030406e-01 
 3.990000000e-08  8.408752144e-01  6.700893770e-01 
 4.190000000e-08  7.663957406e-01  8.877150361e-01 
 4.390000000e-08  3.422724197e-01  5.007622588e-01 
 4.590000000e-08  4.597101350e-01  3.226512414e-01 
 4.790000000e-08  8.719417564e-01  7.272359872e-01 
 4.990000000e-08  7.127402622e-01  8.648722282e-01 
 5.190000000e-08  3.166397616e-01  4.457482335e-01 
 5.390000000e-08  5.159613604e-01  3.512389008e-01 
 5.590000000e-08  8.918757813e-01  7.791895459e-01 
 5.790000000e-08  6.544705304e-01  8.311654210e-01 
 5.990000000e-08  3.026073108e-01  3.970774989e-01 
 6.190000000e-08  5.756538950e-01  3.899921380e-01 
 6.390000000e-08  8.998585181e-01  8.238370033e-01 
 6.590000000e-08  5.939708161e-01  7.879680508e-01 
 6.790000000e-08  3.007529414e-01  3.567495190e-01 
 6.990000000e-08  6.363430322e-01  4.373154859e-01 
 7.190000000e-08  8.955654296e-01  8.593532760e-01 
 1.900000000e-09  8.960714663e-01  8.435513813e-01 
 3.900000000e-09  4.789603162e-01  7.081850063e-01 
 5.900000000e-09  3.646040903e-01  3.021309632e-01 
 7.900000000e-09  8.390461337e-01  6.415358895e-01 
 9.900000000e-09  7.155574839e-01  8.772168328e-01 
 1.190000000e-08  3.030254589e-01  4.195125743e-01 
 1.390000000e-08  6.333167233e-01  4.137390755e-01 
 1.590000000e-08  8.802739265e-01  8.736650035e-01 
 1.790000000e-08  4.261822316e-01  6.495956370e-01 
 1.990000000e-08  4.068606993e-01  3.014345600e-01 
 2.190000000e-08  8.706417463e-01  7.003350932e-01 
 2.390000000e-08  6.574638307e-01  8.485899841e-01 
 2.590000000e-08  3.005533635e-01  3.749555127e-01 
 2.790000000e-08  6.926513658e-01  4.647672922e-01 
 2.990000000e-08  8.529987202e-01  8.926561551e-01 
 3.190000000e-08  3.805217963e-01  5.889512909e-01 
 3.390000000e-08  4.570244416e-01  3.129709089e-01 
 3.590000000e-08  8.911543489e-01  7.550385602e-01 
 3.790000000e-08  5.970170458e-01  8.097621218e-01 
 3.990000000e-08  3.103407334e-01  3.396492894e-01 
 4.190000000e-08  7.481918152e-01  5.213033357e-01 
 4.390000000e-08  8.153693640e-01  8.996949386e-01 
 4.590000000e-08  3.438433316e-01  5.287616222e-01 
 4.790000000e-08  5.130416374e-01  3.362476892e-01 
 4.990000000e-08  8.997487482e-01  8.034223490e-01 
 5.190000000e-08  5.366922762e-01  7.623143925e-01 
 5.390000000e-08  3.319852363e-01  3.150419151e-01 
 5.590000000e-08  7.976662625e-01  5.810378466e-01 
 5.790000000e-08  7.689210018e-01  8.944803930e-01 
 5.990000000e-08  3.176551222e-01  4.714940302e-01 
 6.190000000e-08  5.726186598e-01  3.703052217e-01 
 6.390000000e-08  8.960734442e-01  8.435083185e-01 
 6.590000000e-08  4.789592689e-01  7.081843184e-01 
 6.790000000e-08  3.646044182e-01  3.021293428e-01 
 6.990000000e-08  8.390462124e-01  6.415372641e-01 
 7.190000000e-08  7.155580730e-01  8.772164384e-01 
 1.900000000e-09  8.813431873e-01  8.605097157e-01 
 3.900000000e-09  3.826086259e-01  6.181578934e-01 
 5.900000000e-09  5.101302567e-01  3.237451127e-01 
 7.900000000e-09  8.965476640e-01  8.253807634e-01 
 9.900000000e-09  4.286753176e-01  6.781174462e-01 
 1.190000000e-08  4.543530843e-01  3.059947534e-01 
 1.390000000e-08  8.996080536e-01  7.811040088e-01 
 1.590000000e-08  4.817537303e-01  7.348504935e-01 
 1.790000000e-08  4.045386779e-01  3.002856843e-01 
 1.990000000e-08  8.904073445e-01  7.294455230e-01 
 2.190000000e-08  5.396742149e-01  7.860269172e-01 
 2.390000000e-08  3.627271768e-01  3.068635081e-01 
 2.590000000e-08  8.693125005e-01  6.725090534e-01 
 2.790000000e-08  6.000635323e-01  8.295484951e-01 
 2.990000000e-08  3.306320709e-01  3.254690333e-01 
 3.190000000e-08  8.371952871e-01  6.126102445e-01 
 3.390000000e-08  6.604508184e-01  8.636402222e-01 
 3.590000000e-08  3.095636599e-01  3.553533014e-01 
 3.790000000e-08  7.953632219e-01  5.521872242e-01 
 3.990000000e-08  7.183624200e-01  8.869209475e-01 
 4.190000000e-08  3.003831989e-01  3.952894130e-01 
 4.390000000e-08  7.455361584e-01  4.937045116e-01 
 4.590000000e-08  7.714288039e-01  8.984511119e-01 
 4.790000000e-08  3.034735279e-01  4.436649218e-01 
 4.990000000e-08  6.897492506e-01  4.395431679e-01 
 5.190000000e-08  8.174796407e-01  8.977756241e-01 
 5.390000000e-08  3.186981059e-01  4.984589504e-01 
 5.590000000e-08  6.302872602e-01  3.919190567e-01 
 5.790000000e-08  8.546233933e-01  8.849366047e-01 
 5.990000000e-08  3.454435367e-01  5.574384103e-01 
 6.190000000e-08  5.695860503e-01  3.527815853e-01 
 6.390000000e-08  8.813429611e-01  8.604700353e-01 
 6.590000000e-08  3.826106847e-01  6.181584539e-01 
 6.790000000e-08  5.101296194e-01  3.237404315e-01 
 6.990000000e-08  8.965484352e-01  8.253820165e-01 
 7.190000000e-08  4.286744148e-01  6.781176980e-01 
 1.900000000e-09  8.562207165e-01  8.745678470e-01 
 3.900000000e-09  3.197746305e-01  5.263958611e-01 
 5.900000000e-09  6.868364237e-01  4.158355449e-01 
 7.900000000e-09  7.739219084e-01  8.995899024e-01 
 9.900000000e-09  3.002478905e-01  4.175858281e-01 
 1.190000000e-08  7.930405869e-01  5.237962197e-01 
 1.390000000e-08  6.634314129e-01  8.761755784e-01 
 1.590000000e-08  3.293029973e-01  3.384948635e-01 
 1.790000000e-08  8.679550856e-01  6.440158485e-01 
 1.990000000e-08  5.426613713e-01  8.079523756e-01 
 2.190000000e-08  4.022380160e-01  3.019642886e-01 
 2.390000000e-08  8.994404230e-01  7.570989264e-01 
 2.590000000e-08  4.311853015e-01  7.058829466e-01 
 2.790000000e-08  5.072284468e-01  3.138365324e-01 
 2.990000000e-08  8.823861704e-01  8.448275968e-01 
 3.190000000e-08  3.470692498e-01  5.865153971e-01 
 3.390000000e-08  6.272547077e-01  3.720702538e-01 
 3.590000000e-08  8.195637378e-01  8.930413651e-01 
 3.790000000e-08  3.039474833e-01  4.693017244e-01 
 3.990000000e-08  7.428632730e-01  4.671157184e-01 
 4.190000000e-08  7.211562484e-01  8.938953148e-01 
 4.390000000e-08  3.088137534e-01  3.733777281e-01 
 4.590000000e-08  8.353151085e-01  5.835792754e-01 
