 time             v(vi)            v(vo)           
 1.900000000e-09  6.574022866e-01  6.311042122e-01 
 3.900000000e-09  7.155010912e-01  6.904901053e-01 
 5.900000000e-09  7.688712546e-01  7.461945091e-01 
 7.900000000e-09  8.153277706e-01  7.959164440e-01 
 9.900000000e-09  8.529687592e-01  8.376264260e-01 
 1.190000000e-08  8.802531109e-01  8.696122616e-01 
 1.390000000e-08  8.960638609e-01  8.905678665e-01 
 1.590000000e-08  8.997537213e-01  8.996297362e-01 
 1.790000000e-08  8.911716374e-01  8.964235966e-01 
 1.990000000e-08  8.706689538e-01  8.810822894e-01 
 2.190000000e-08  8.390850667e-01  8.542282426e-01 
 2.390000000e-08  7.977130388e-01  8.169587477e-01 
 2.590000000e-08  7.482466196e-01  7.708003329e-01 
 2.790000000e-08  6.927109896e-01  7.176390337e-01 
 2.990000000e-08  6.333797793e-01  6.596617938e-01 
 3.190000000e-08  5.726819971e-01  5.992377794e-01 
 3.390000000e-08  5.131026086e-01  5.388427303e-01 
 3.590000000e-08  4.570808180e-01  4.809556159e-01 
 3.790000000e-08  4.069101100e-01  4.279460775e-01 
 3.990000000e-08  3.646445254e-01  3.819871113e-01 
 4.190000000e-08  3.320143732e-01  3.449577039e-01 
 4.390000000e-08  3.103555760e-01  3.183747031e-01 
 4.590000000e-08  3.005548400e-01  3.033243192e-01 
 4.790000000e-08  3.030134025e-01  3.004240079e-01 
 4.990000000e-08  3.176306413e-01  3.097855688e-01 
 5.190000000e-08  3.438081523e-01  3.310263135e-01 
 5.390000000e-08  3.804742040e-01  3.632740663e-01 
 5.590000000e-08  4.261276765e-01  4.052064816e-01 
 5.790000000e-08  4.788995345e-01  4.551079313e-01 
 5.990000000e-08  5.366292651e-01  5.109351721e-01 
 6.190000000e-08  5.969534162e-01  5.704057395e-01 
 6.390000000e-08  6.574022865e-01  6.310846648e-01 
 6.590000000e-08  7.155010943e-01  6.904871140e-01 
 6.790000000e-08  7.688712604e-01  7.461925793e-01 
 6.990000000e-08  8.153277765e-01  7.959173538e-01 
 7.190000000e-08  8.529687375e-01  8.376261978e-01 
 1.900000000e-09  7.126835078e-01  6.618696878e-01 
 3.900000000e-09  8.131954853e-01  7.725043167e-01 
 5.900000000e-09  8.791516214e-01  8.552620625e-01 
 7.900000000e-09  8.998615511e-01  8.966977221e-01 
 9.900000000e-09  8.719685907e-01  8.900621287e-01 
 1.190000000e-08  7.999939277e-01  8.363876746e-01 
 1.390000000e-08  6.956034931e-01  7.443491292e-01 
 1.590000000e-08  5.757173399e-01  6.288687581e-01 
 1.790000000e-08  4.597669813e-01  5.087004084e-01 
 1.990000000e-08  3.665461276e-01  4.033549643e-01 
 2.190000000e-08  3.111642610e-01  3.299285648e-01 
 2.390000000e-08  3.025980307e-01  3.003114608e-01 
 2.590000000e-08  3.422360747e-01  3.192764834e-01 
 2.790000000e-08  4.236537444e-01  3.837118772e-01 
 2.990000000e-08  5.336546483e-01  4.831635252e-01 
 3.190000000e-08  6.544091169e-01  6.015089388e-01 
 3.390000000e-08  7.663446003e-01  7.196060945e-01 
 3.590000000e-08  8.513181504e-01  8.183457110e-01 
 3.790000000e-08  8.955567098e-01  8.817444030e-01 
 3.990000000e-08  8.918900943e-01  8.995113021e-01 
 4.190000000e-08  8.409127819e-01  8.687332966e-01 
 4.390000000e-08  7.508873992e-01  7.943513580e-01 
 4.590000000e-08  6.364056276e-01  6.884227475e-01 
 4.790000000e-08  5.160231591e-01  5.681303851e-01 
 4.990000000e-08  4.092519324e-01  4.530132104e-01 
 5.190000000e-08  3.333977325e-01  3.617557128e-01 
 5.390000000e-08  3.007556126e-01  3.091644535e-01 
 5.590000000e-08  3.166161541e-01  3.037305350e-01 
 5.790000000e-08  3.784089290e-01  3.463081498e-01 
 5.990000000e-08  4.761183670e-01  4.299642357e-01 
 6.190000000e-08  5.939071658e-01  5.411363930e-01 
 6.390000000e-08  7.126835579e-01  6.618266018e-01 
 6.590000000e-08  8.131954822e-01  7.725009411e-01 
 6.790000000e-08  8.791516214e-01  8.552601344e-01 
 6.990000000e-08  8.998615397e-01  8.966978918e-01 
 7.190000000e-08  8.719685917e-01  8.900616247e-01 
 1.900000000e-09  7.638008861e-01  6.919479707e-01 
 3.900000000e-09  8.780212984e-01  8.384172513e-01 
 5.900000000e-09  8.925783499e-01  8.996403007e-01 
 7.900000000e-09  8.022542498e-01  8.534880660e-01 
 9.900000000e-09  6.394277226e-01  7.163346627e-01 
 1.190000000e-08  4.624677161e-01  5.373588181e-01 
 1.390000000e-08  3.348089118e-01  3.808953303e-01 
 1.590000000e-08  3.022134326e-01  3.031174497e-01 
 1.790000000e-08  3.763665288e-01  3.318170261e-01 
 1.990000000e-08  5.306869011e-01  4.565579004e-01 
 2.190000000e-08  7.098543097e-01  6.325852297e-01 
 2.390000000e-08  8.496414688e-01  7.969379167e-01 
 2.590000000e-08  8.999385228e-01  8.908417227e-01 
 2.790000000e-08  8.427154857e-01  8.805814176e-01 
 2.990000000e-08  6.984861530e-01  7.696517687e-01 
 3.190000000e-08  5.189524125e-01  5.977533789e-01 
 3.390000000e-08  3.684717261e-01  4.266589126e-01 
 3.590000000e-08  3.009872676e-01  3.178337729e-01 
 3.790000000e-08  3.406907302e-01  3.102592693e-01 
 3.990000000e-08  4.733499927e-01  4.064947439e-01 
 4.190000000e-08  6.514102965e-01  5.719570190e-01 
 4.390000000e-08  8.110411886e-01  7.474203909e-01 
 4.590000000e-08  8.950191399e-01  8.701465766e-01 
 4.790000000e-08  8.732401526e-01  8.961742960e-01 
 4.990000000e-08  7.535124682e-01  8.160002483e-01 
 5.190000000e-08  5.787551749e-01  6.582418758e-01 
 5.390000000e-08  4.116135128e-01  4.795376582e-01 
 5.590000000e-08  3.120026424e-01  3.441177880e-01 
 5.790000000e-08  3.156307251e-01  3.005591201e-01 
 5.990000000e-08  4.211981877e-01  3.643376583e-01 
 6.190000000e-08  5.908615450e-01  5.124693178e-01 
 6.390000000e-08  7.638007645e-01  6.918760953e-01 
 6.590000000e-08  8.780213016e-01  8.384109191e-01 
 6.790000000e-08  8.925783282e-01  8.996409633e-01 
 6.990000000e-08  8.022542396e-01  8.534879877e-01 
 7.190000000e-08  6.394277145e-01  7.163413056e-01 
 1.900000000e-09  8.088651928e-01  7.210077513e-01 
 3.900000000e-09  8.999847580e-01  8.821259513e-01 
 5.900000000e-09  8.044934966e-01  8.680837457e-01 
 7.900000000e-09  5.817951994e-01  6.870532104e-01 
 9.900000000e-09  3.704211439e-01  4.516726001e-01 
 1.190000000e-08  3.018596453e-01  3.088154290e-01 
 1.390000000e-08  4.187609440e-01  3.472572427e-01 
 1.590000000e-08  6.484062002e-01  5.427026933e-01 
 1.790000000e-08  8.479392626e-01  7.736314320e-01 
 1.990000000e-08  8.932368760e-01  8.968152711e-01 
 2.190000000e-08  7.561217023e-01  8.355163512e-01 
 2.390000000e-08  5.218898921e-01  6.274199017e-01 
 2.590000000e-08  3.362471767e-01  4.021801939e-01 
 2.790000000e-08  3.146750453e-01  3.002995464e-01 
 2.990000000e-08  4.705947429e-01  3.849116073e-01 
 3.190000000e-08  7.070136987e-01  6.030591321e-01 
 3.390000000e-08  8.768622201e-01  8.192440205e-01 
 3.590000000e-08  8.744837682e-01  8.993626510e-01 
 3.790000000e-08  7.013585287e-01  7.932797273e-01 
 3.990000000e-08  4.651823782e-01  5.666644703e-01 
 4.190000000e-08  3.128711740e-01  3.608126414e-01 
 4.390000000e-08  3.391721630e-01  3.040612686e-01 
 4.590000000e-08  5.277262772e-01  4.313594078e-01 
 4.790000000e-08  7.612401704e-01  6.632845997e-01 
 4.990000000e-08  8.944506442e-01  8.559128173e-01 
 5.190000000e-08  8.444935009e-01  8.896571674e-01 
 5.390000000e-08  6.424457244e-01  7.431082905e-01 
 5.590000000e-08  4.139944085e-01  5.072583740e-01 
 5.790000000e-08  3.012499503e-01  3.292635442e-01 
 5.990000000e-08  3.743474206e-01  3.199377770e-01 
 6.190000000e-08  5.878168538e-01  4.846848360e-01 
 6.390000000e-08  8.088650652e-01  7.209247382e-01 
 6.590000000e-08  8.999844191e-01  8.821302393e-01 
 6.790000000e-08  8.044936410e-01  8.680819403e-01 
 6.990000000e-08  5.817951956e-01  6.870528311e-01 
 7.190000000e-08  3.704211585e-01  4.516711035e-01 
 1.900000000e-09  8.462116206e-01  7.487430310e-01 
 3.900000000e-09  8.756983868e-01  8.995983267e-01 
 5.900000000e-09  6.454592811e-01  7.684794201e-01 
 7.900000000e-09  3.723943771e-01  4.781665872e-01 
 9.900000000e-09  3.137488858e-01  3.029591919e-01 
 1.190000000e-08  5.247732289e-01  4.078163102e-01 
 1.390000000e-08  8.066677422e-01  6.932769049e-01 
 1.590000000e-08  8.938645128e-01  8.910724670e-01 
 1.790000000e-08  7.042204666e-01  8.150071882e-01 
 1.990000000e-08  4.163944769e-01  5.359119721e-01 
 2.190000000e-08  3.015359730e-01  3.173477359e-01 
 2.390000000e-08  4.678525193e-01  3.654467149e-01 
 2.590000000e-08  7.586625395e-01  6.341026763e-01 
 2.790000000e-08  8.999999255e-01  8.706511192e-01 
 2.990000000e-08  7.587148087e-01  8.527002532e-01 
 3.190000000e-08  4.679111246e-01  5.962922988e-01 
 3.390000000e-08  3.015427251e-01  3.433334767e-01 
 3.590000000e-08  4.163425524e-01  3.326487797e-01 
 3.790000000e-08  7.041622225e-01  5.735306519e-01 
 3.990000000e-08  8.938519860e-01  8.391811437e-01 
 4.190000000e-08  8.067114947e-01  8.800238411e-01 
 4.390000000e-08  5.248356348e-01  6.568242224e-01 
 4.590000000e-08  3.137692183e-01  3.798504006e-01 
 4.790000000e-08  3.723514871e-01  3.107787241e-01 
 4.990000000e-08  6.453970317e-01  5.140193174e-01 
 5.190000000e-08  8.756746044e-01  7.979459263e-01 
 5.390000000e-08  8.462461893e-01  8.958686754e-01 
 5.590000000e-08  5.848370398e-01  7.150186368e-01 
 5.790000000e-08  3.377127675e-01  4.254124066e-01 
 5.990000000e-08  3.376804445e-01  3.007419818e-01 
 6.190000000e-08  5.847734138e-01  4.580309734e-01 
 6.390000000e-08  8.462112853e-01  7.486477259e-01 
 6.590000000e-08  8.756983137e-01  8.995975665e-01 
 6.790000000e-08  6.454592845e-01  7.684873229e-01 
 6.990000000e-08  3.723949031e-01  4.781570687e-01 
 7.190000000e-08  3.137488467e-01  3.029584372e-01 
 1.900000000e-09  8.744584370e-01  7.748560470e-01 
 3.900000000e-09  8.089082463e-01  8.891944851e-01 
 5.900000000e-09  4.706534029e-01  6.259802086e-01 
 7.900000000e-09  3.012446298e-01  3.286418501e-01 
 9.900000000e-09  5.218278659e-01  3.861498920e-01 
 1.190000000e-08  8.444573793e-01  7.222450033e-01 
 1.390000000e-08  8.479728412e-01  8.991601922e-01 
 1.590000000e-08  5.277890686e-01  6.856774396e-01 
 1.790000000e-08  3.018674422e-01  3.599180500e-01 
 1.990000000e-08  4.651244563e-01  3.482611326e-01 
 2.190000000e-08  8.044483562e-01  6.647379784e-01 
 2.390000000e-08  8.768852213e-01  8.968834149e-01 
 2.590000000e-08  5.878805356e-01  7.418457754e-01 
 2.790000000e-08  3.146965948e-01  4.010555754e-01 
 2.990000000e-08  4.139428732e-01  3.206368147e-01 
 3.190000000e-08  7.560686642e-01  6.046235228e-01 
 3.390000000e-08  8.944621424e-01  8.824739948e-01 
 3.590000000e-08  6.484681733e-01  7.921757124e-01 
 3.790000000e-08  3.392059726e-01  4.503888742e-01 
 3.990000000e-08  3.703790394e-01  3.044381872e-01 
 4.190000000e-08  7.012996365e-01  5.442913424e-01 
 4.390000000e-08  8.999836204e-01  8.565311773e-01 
 4.590000000e-08  7.070716277e-01  8.345995221e-01 
 4.790000000e-08  3.743918766e-01  5.058468877e-01 
 4.990000000e-08  3.362149785e-01  3.003361264e-01 
 5.190000000e-08  6.423832042e-01  4.862266938e-01 
 5.390000000e-08  8.932238712e-01  8.201247208e-01 
 5.590000000e-08  7.612915615e-01  8.673906694e-01 
 5.790000000e-08  4.188139090e-01  5.651964838e-01 
 5.990000000e-08  3.128515353e-01  3.085145714e-01 
 6.190000000e-08  5.817315764e-01  4.327812139e-01 
 6.390000000e-08  8.744589179e-01  7.747322720e-01 
 6.590000000e-08  8.089082560e-01  8.891970448e-01 
 6.790000000e-08  4.706535173e-01  6.259802451e-01 
 6.990000000e-08  3.012445929e-01  3.286445055e-01 
 7.190000000e-08  5.218278796e-01  3.861651174e-01 
 1.900000000e-09  8.925648753e-01  7.990600841e-01 
 3.900000000e-09  7.099117209e-01  8.518681247e-01 
 5.900000000e-09  3.407255029e-01  4.768314874e-01 
 7.900000000e-09  4.115628123e-01  3.113448924e-01 
 9.900000000e-09  8.022087078e-01  6.356293803e-01 
 1.190000000e-08  8.496740425e-01  8.995025968e-01 
 1.390000000e-08  4.734092097e-01  6.554084143e-01 
 1.590000000e-08  3.119851953e-01  3.169153339e-01 
 1.790000000e-08  6.393650351e-01  4.595428235e-01 
 1.990000000e-08  8.999370703e-01  8.399232559e-01 
 2.190000000e-08  6.514722778e-01  8.139690133e-01 
 2.390000000e-08  3.156539323e-01  4.242187605e-01 
 2.590000000e-08  4.624095715e-01  3.335210193e-01 
 2.790000000e-08  8.426798998e-01  6.946800423e-01 
 2.990000000e-08  8.110833906e-01  8.955095213e-01 
 3.190000000e-08  4.212518859e-01  5.948298328e-01 
 3.390000000e-08  3.347789077e-01  3.028505636e-01 
 3.590000000e-08  6.984267571e-01  5.156183278e-01 
 3.790000000e-08  8.950290861e-01  8.711148672e-01 
 3.990000000e-08  5.909252173e-01  7.672687216e-01 
 4.190000000e-08  3.022219277e-01  3.788559848e-01 
 4.390000000e-08  5.188905889e-01  3.665837305e-01 
 4.590000000e-08  8.732139059e-01  7.498627329e-01 
 4.790000000e-08  7.638523176e-01  8.794201494e-01 
 4.990000000e-08  3.764119829e-01  5.344729041e-01 
 5.190000000e-08  3.684305238e-01  3.009736048e-01 
 5.390000000e-08  7.534593620e-01  5.751211877e-01 
 5.590000000e-08  8.780427222e-01  8.912548018e-01 
 5.790000000e-08  5.307497417e-01  7.136820982e-01 
 5.990000000e-08  3.009827764e-01  3.425974191e-01 
 6.190000000e-08  5.786916341e-01  4.091800514e-01 
 6.390000000e-08  8.925639164e-01  7.989473117e-01 
 6.590000000e-08  7.099116071e-01  8.518614784e-01 
 6.790000000e-08  3.407255035e-01  4.768153074e-01 
 6.990000000e-08  4.115628414e-01  3.113456503e-01 
 7.190000000e-08  8.022086783e-01  6.356302563e-01 
 1.900000000e-09  8.998583165e-01  8.210939324e-01 
 3.900000000e-09  5.939708139e-01  7.910113831e-01 
 5.900000000e-09  3.007510470e-01  3.590730156e-01 
 7.900000000e-09  6.363427799e-01  4.342243517e-01 
 9.900000000e-09  8.955649518e-01  8.571185477e-01 
 1.190000000e-08  5.337179797e-01  7.405594935e-01 
 1.390000000e-08  3.111483051e-01  3.280807589e-01 
 1.590000000e-08  6.955440778e-01  4.877908092e-01 
 1.790000000e-08  8.791715219e-01  8.827774912e-01 
 1.990000000e-08  4.761786772e-01  6.842867406e-01 
 2.190000000e-08  3.333684530e-01  3.082644015e-01 
 2.390000000e-08  7.508335171e-01  5.458945845e-01 
 2.590000000e-08  8.513491781e-01  8.969012638e-01 
 2.790000000e-08  4.237071546e-01  6.245328723e-01 
 2.990000000e-08  3.665042700e-01  3.004239406e-01 
 3.190000000e-08  7.999473401e-01  6.061877089e-01 
 3.390000000e-08  8.132372494e-01  8.989015816e-01 
 3.590000000e-08  3.784540874e-01  5.637634711e-01 
 3.790000000e-08  4.092010669e-01  3.048576098e-01 
 3.990000000e-08  8.408759768e-01  6.662209897e-01 
 4.190000000e-08  7.663949868e-01  8.886726051e-01 
 4.390000000e-08  3.422719564e-01  5.044664586e-01 
 4.590000000e-08  4.597092147e-01  3.213783083e-01 
 4.790000000e-08  8.719416664e-01  7.235607166e-01 
 4.990000000e-08  7.127402217e-01  8.666315858e-01 
 5.190000000e-08  3.166395699e-01  4.491068163e-01 
 5.390000000e-08  5.159612709e-01  3.492875536e-01 
 5.590000000e-08  8.918758105e-01  7.758526190e-01 
 5.790000000e-08  6.544706104e-01  8.336275171e-01 
 5.990000000e-08  3.026074225e-01  3.999721812e-01 
 6.190000000e-08  5.756537405e-01  3.874299631e-01 
 6.390000000e-08  8.998574453e-01  8.209807092e-01 
 6.590000000e-08  5.939708133e-01  7.910255058e-01 
 6.790000000e-08  3.007516895e-01  3.590737350e-01 
 6.990000000e-08  6.363427822e-01  4.342275698e-01 
 7.190000000e-08  8.955658709e-01  8.571160351e-01 
 1.900000000e-09  8.960727213e-01  8.407515680e-01 
 3.900000000e-09  4.789603387e-01  7.123109305e-01 
 5.900000000e-09  3.646055976e-01  3.027996861e-01 
 7.900000000e-09  8.390461529e-01  6.371600634e-01 
 9.900000000e-09  7.155572274e-01  8.787397860e-01 
 1.190000000e-08  3.030249216e-01  4.230625063e-01 
 1.390000000e-08  6.333169570e-01  4.105514967e-01 
 1.590000000e-08  8.802723744e-01  8.715434709e-01 
 1.790000000e-08  4.261815353e-01  6.539769564e-01 
 1.990000000e-08  4.068610561e-01  3.012542241e-01 
 2.190000000e-08  8.706422534e-01  6.960727989e-01 
 2.390000000e-08  6.574635661e-01  8.509671274e-01 
 2.590000000e-08  3.005520046e-01  3.779134598e-01 
 2.790000000e-08  6.926509403e-01  4.610597769e-01 
 2.990000000e-08  8.529987002e-01  8.913891500e-01 
 3.190000000e-08  3.805215730e-01  5.933768846e-01 
 3.390000000e-08  4.570241580e-01  3.119576882e-01 
 3.590000000e-08  8.911548805e-01  7.510812427e-01 
 3.790000000e-08  5.970170110e-01  8.128872259e-01 
 3.990000000e-08  3.103393787e-01  3.419112519e-01 
 4.190000000e-08  7.481914135e-01  5.171834565e-01 
 4.390000000e-08  8.153679712e-01  8.993556875e-01 
 4.590000000e-08  3.438448499e-01  5.330628112e-01 
 4.790000000e-08  5.130413185e-01  3.344363451e-01 
 4.990000000e-08  8.997510832e-01  7.999198290e-01 
 5.190000000e-08  5.366925490e-01  7.660133035e-01 
 5.390000000e-08  3.319849258e-01  3.165277745e-01 
 5.590000000e-08  7.976652609e-01  5.767176111e-01 
 5.790000000e-08  7.689205572e-01  8.950882866e-01 
 5.990000000e-08  3.176557567e-01  4.754935965e-01 
 6.190000000e-08  5.726186490e-01  3.677713861e-01 
 6.390000000e-08  8.960707531e-01  8.406321943e-01 
 6.590000000e-08  4.789603355e-01  7.123270223e-01 
 6.790000000e-08  3.646053061e-01  3.027955914e-01 
 6.990000000e-08  8.390461833e-01  6.371576583e-01 
 7.190000000e-08  7.155572275e-01  8.787397747e-01 
 1.900000000e-09  8.813430994e-01  8.577906047e-01 
 3.900000000e-09  3.826106993e-01  6.230584547e-01 
 5.900000000e-09  5.101302134e-01  3.221706332e-01 
 7.900000000e-09  8.965457368e-01  8.218155009e-01 
 9.900000000e-09  4.286746445e-01  6.828748145e-01 
 1.190000000e-08  4.543527030e-01  3.053320578e-01 
 1.390000000e-08  8.996080905e-01  7.769287743e-01 
 1.590000000e-08  4.817543016e-01  7.392238353e-01 
 1.790000000e-08  4.045399072e-01  3.005603720e-01 
 1.990000000e-08  8.904065754e-01  7.248502576e-01 
 2.190000000e-08  5.396741896e-01  7.898404858e-01 
 2.390000000e-08  3.627268239e-01  3.080703210e-01 
 2.590000000e-08  8.693120170e-01  6.676882038e-01 
 2.790000000e-08  6.000635102e-01  8.326050392e-01 
 2.990000000e-08  3.306309730e-01  3.275688152e-01 
 3.190000000e-08  8.371924526e-01  6.077673328e-01 
 3.390000000e-08  6.604508787e-01  8.658137821e-01 
 3.590000000e-08  3.095631909e-01  3.582691038e-01 
 3.790000000e-08  7.953628047e-01  5.474952440e-01 
 3.990000000e-08  7.183622778e-01  8.881004448e-01 
 4.190000000e-08  3.003855011e-01  3.989305952e-01 
 4.390000000e-08  7.455347198e-01  4.893520790e-01 
 4.590000000e-08  7.714286386e-01  8.985899087e-01 
 4.790000000e-08  3.034727371e-01  4.478813667e-01 
 4.990000000e-08  6.897483019e-01  4.357020921e-01 
 5.190000000e-08  8.174792785e-01  8.968705388e-01 
 5.390000000e-08  3.186995781e-01  5.031054430e-01 
 5.590000000e-08  6.302872441e-01  3.887338278e-01 
 5.790000000e-08  8.546251579e-01  8.830406189e-01 
 5.990000000e-08  3.454449158e-01  5.623049857e-01 
 6.190000000e-08  5.695860543e-01  3.503528205e-01 
 6.390000000e-08  8.813428639e-01  8.576748309e-01 
 6.590000000e-08  3.826100850e-01  6.231073863e-01 
 6.790000000e-08  5.101301968e-01  3.221664222e-01 
 6.990000000e-08  8.965488479e-01  8.218122226e-01 
 7.190000000e-08  4.286745518e-01  6.828794630e-01 
 1.900000000e-09  8.562189274e-01  8.720392443e-01 
 3.900000000e-09  3.197754472e-01  5.316508277e-01 
 5.900000000e-09  6.868376154e-01  4.119280179e-01 
 7.900000000e-09  7.739219058e-01  8.991583887e-01 
 9.900000000e-09  3.002473163e-01  4.219312144e-01 
 1.190000000e-08  7.930412760e-01  5.188106194e-01 
 1.390000000e-08  6.634315912e-01  8.780193453e-01 
 1.590000000e-08  3.293030483e-01  3.412726402e-01 
 1.790000000e-08  8.679558226e-01  6.386745806e-01 
 1.990000000e-08  5.426616334e-01  8.117603182e-01 
 2.190000000e-08  4.022392422e-01  3.027948158e-01 
 2.390000000e-08  8.994388977e-01  7.522497952e-01 
 2.590000000e-08  4.311854742e-01  7.109218813e-01 
 2.790000000e-08  5.072273413e-01  3.126065957e-01 
 2.990000000e-08  8.823850002e-01  8.413087903e-01 
 3.190000000e-08  3.470714696e-01  5.919339502e-01 
 3.390000000e-08  6.272546538e-01  3.689477519e-01 
 3.590000000e-08  8.195640600e-01  8.914856987e-01 
 3.790000000e-08  3.039511598e-01  4.742222829e-01 
 3.990000000e-08  7.428633616e-01  4.625946153e-01 
 4.190000000e-08  7.211560979e-01  8.946132605e-01 
 4.390000000e-08  3.088125756e-01  3.769969579e-01 
 4.590000000e-08  8.353154712e-01  5.783106329e-01 
