 time             v(vi)            v(vc)           
 1.100000000e-09  3.220194371e-01  3.218015875e-01 
 3.100000000e-09  3.615836498e-01  3.613656704e-01 
 5.100000000e-09  3.986265898e-01  3.984216706e-01 
 7.100000000e-09  4.316317096e-01  4.314497810e-01 
 9.100000000e-09  4.592477751e-01  4.590982797e-01 
 1.110000000e-08  4.803441860e-01  4.802353514e-01 
 1.310000000e-08  4.940572614e-01  4.939953733e-01 
 1.510000000e-08  4.998255976e-01  4.998143838e-01 
 1.710000000e-08  4.974130516e-01  4.974532853e-01 
 1.910000000e-08  4.869184048e-01  4.870078121e-01 
 2.110000000e-08  4.687713190e-01  4.689048034e-01 
 2.310000000e-08  4.437147452e-01  4.438848907e-01 
 2.510000000e-08  4.127745057e-01  4.129722645e-01 
 2.710000000e-08  3.772172958e-01  3.774327444e-01 
 2.910000000e-08  3.384988263e-01  3.387218799e-01 
 3.110000000e-08  2.982042254e-01  2.984252317e-01 
 3.310000000e-08  2.579831456e-01  2.581933150e-01 
 3.510000000e-08  2.194822270e-01  2.196739016e-01 
 3.710000000e-08  1.842776880e-01  1.844444654e-01 
 3.910000000e-08  1.538107949e-01  1.539475506e-01 
 4.110000000e-08  1.293288611e-01  1.294317009e-01 
 4.310000000e-08  1.118341822e-01  1.119003675e-01 
 4.510000000e-08  1.020430037e-01  1.020708736e-01 
 4.710000000e-08  1.003561953e-01  1.003451063e-01 
 4.910000000e-08  1.068428355e-01  1.067931313e-01 
 5.110000000e-08  1.212373796e-01  1.211503938e-01 
 5.310000000e-08  1.429505261e-01  1.428286182e-01 
 5.510000000e-08  1.710933408e-01  1.709399554e-01 
 5.710000000e-08  2.045136498e-01  2.043333850e-01 
 5.910000000e-08  2.418432103e-01  2.416418722e-01 
 6.110000000e-08  2.815537299e-01  2.813383442e-01 
 6.310000000e-08  3.220194382e-01  3.217981825e-01 
 6.510000000e-08  3.615836498e-01  3.613656705e-01 
 6.710000000e-08  3.986265899e-01  3.984216706e-01 
 6.910000000e-08  4.316317090e-01  4.314497804e-01 
 7.110000000e-08  4.592477750e-01  4.590982795e-01 
 1.100000000e-09  3.437709767e-01  3.433379037e-01 
 3.100000000e-09  4.171821795e-01  4.167962048e-01 
 5.100000000e-09  4.715996849e-01  4.713431459e-01 
 7.100000000e-09  4.982033598e-01  4.981331695e-01 
 9.100000000e-09  4.926813571e-01  4.928151990e-01 
 1.110000000e-08  4.559288878e-01  4.562376858e-01 
 1.310000000e-08  3.939030326e-01  3.943214527e-01 
 1.510000000e-08  3.166571644e-01  3.171053584e-01 
 1.710000000e-08  2.367114650e-01  2.371155716e-01 
 1.910000000e-08  1.670236669e-01  1.673273890e-01 
 2.110000000e-08  1.188889318e-01  1.190564038e-01 
 2.310000000e-08  1.001092148e-01  1.001233565e-01 
 2.510000000e-08  1.137286819e-01  1.135890339e-01 
 2.710000000e-08  1.575400987e-01  1.572622346e-01 
 2.910000000e-08  2.244423725e-01  2.240590856e-01 
 3.110000000e-08  3.035915063e-01  3.031542659e-01 
 3.310000000e-08  3.821584028e-01  3.817359205e-01 
 3.510000000e-08  4.474084266e-01  4.470783230e-01 
 3.710000000e-08  4.887655792e-01  4.885971741e-01 
 3.910000000e-08  4.995266694e-01  4.995592456e-01 
 4.110000000e-08  4.779476923e-01  4.781753507e-01 
 4.310000000e-08  4.275264016e-01  4.278996374e-01 
 4.510000000e-08  3.564353158e-01  3.568786217e-01 
 4.710000000e-08  2.761970770e-01  2.766315148e-01 
 4.910000000e-08  1.998168465e-01  2.001765119e-01 
 5.110000000e-08  1.396744688e-01  1.399133151e-01 
 5.310000000e-08  1.055180346e-01  1.056099001e-01 
 5.510000000e-08  1.028839498e-01  1.028202622e-01 
 5.710000000e-08  1.321994584e-01  1.319877218e-01 
 5.910000000e-08  1.887131527e-01  1.883773304e-01 
 6.110000000e-08  2.632649695e-01  2.628470992e-01 
 6.310000000e-08  3.437709775e-01  3.433316696e-01 
 6.510000000e-08  4.171821794e-01  4.167962049e-01 
 6.710000000e-08  4.715996848e-01  4.713431460e-01 
 6.910000000e-08  4.982033591e-01  4.981331705e-01 
 7.110000000e-08  4.926813570e-01  4.928151986e-01 
 1.100000000e-09  3.649897468e-01  3.643520827e-01 
 3.100000000e-09  4.613916460e-01  4.609541899e-01 
 5.100000000e-09  4.999382424e-01  4.999148821e-01 
 7.100000000e-09  4.668125789e-01  4.672221006e-01 
 9.100000000e-09  3.738898962e-01  3.745434405e-01 
 1.110000000e-08  2.544801203e-01  2.551131058e-01 
 1.310000000e-08  1.513875012e-01  1.517940487e-01 
 1.510000000e-08  1.015674693e-01  1.016433118e-01 
 1.710000000e-08  1.228800511e-01  1.226119552e-01 
 1.910000000e-08  2.076863892e-01  2.071439164e-01 
 2.110000000e-08  3.255852906e-01  3.249273198e-01 
 2.310000000e-08  4.343119552e-01  4.337767173e-01 
 2.510000000e-08  4.948904719e-01  4.947155428e-01 
 2.710000000e-08  4.856058819e-01  4.858835297e-01 
 2.910000000e-08  4.097872841e-01  4.103886349e-01 
 3.110000000e-08  2.946135605e-01  2.952809482e-01 
 3.310000000e-08  1.813705649e-01  1.818691841e-01 
 3.510000000e-08  1.106520686e-01  1.108437688e-01 
 3.710000000e-08  1.078091703e-01  1.076521243e-01 
 3.910000000e-08  1.738622762e-01  1.733981935e-01 
 4.110000000e-08  2.851332934e-01  2.844905096e-01 
 4.310000000e-08  4.017334005e-01  4.011281447e-01 
 4.510000000e-08  4.818638500e-01  4.815483877e-01 
 4.710000000e-08  4.968005480e-01  4.969310723e-01 
 4.910000000e-08  4.411900510e-01  4.417091470e-01 
 5.110000000e-08  3.349675035e-01  3.356426289e-01 
 5.310000000e-08  2.162102090e-01  2.167856343e-01 
 5.510000000e-08  1.274885213e-01  1.277915664e-01 
 5.710000000e-08  1.006067045e-01  1.005652983e-01 
 5.910000000e-08  1.452023772e-01  1.448308718e-01 
 6.110000000e-08  2.452899100e-01  2.446867110e-01 
 6.310000000e-08  3.649897451e-01  3.643436970e-01 
 6.510000000e-08  4.613916459e-01  4.609541902e-01 
 6.710000000e-08  4.999382425e-01  4.999148821e-01 
 6.910000000e-08  4.668125808e-01  4.672221015e-01 
 7.110000000e-08  3.738898960e-01  3.745434401e-01 
 1.100000000e-09  3.854173724e-01  3.845939003e-01 
 3.100000000e-09  4.899153152e-01  4.895933837e-01 
 5.100000000e-09  4.762728907e-01  4.767397977e-01 
 7.100000000e-09  3.529788265e-01  3.538733723e-01 
 9.100000000e-09  1.967288985e-01  1.974473220e-01 
 1.110000000e-08  1.047184584e-01  1.048924726e-01 
 1.310000000e-08  1.341855411e-01  1.337529100e-01 
 1.510000000e-08  2.668024519e-01  2.659689560e-01 
 1.710000000e-08  4.200702782e-01  4.193120041e-01 
 1.910000000e-08  4.986443357e-01  4.985181113e-01 
 2.110000000e-08  4.536487627e-01  4.542772467e-01 
 2.310000000e-08  3.130752659e-01  3.139778987e-01 
 2.510000000e-08  1.643678598e-01  1.649717642e-01 
 2.710000000e-08  1.000305147e-01  1.000481010e-01 
 2.910000000e-08  1.600878547e-01  1.595250085e-01 
 3.110000000e-08  3.071819247e-01  3.063131872e-01 
 3.310000000e-08  4.498073295e-01  4.491619500e-01 
 3.510000000e-08  4.992408616e-01  4.993192702e-01 
 3.710000000e-08  4.247343761e-01  4.254909943e-01 
 3.910000000e-08  2.726363877e-01  2.735094070e-01 
 4.110000000e-08  1.375594443e-01  1.380311379e-01 
 4.310000000e-08  1.035293783e-01  1.033910433e-01 
 4.510000000e-08  1.917183669e-01  1.910422978e-01 
 4.710000000e-08  3.472672799e-01  3.463976458e-01 
 4.910000000e-08  4.734111062e-01  4.729132086e-01 
 5.110000000e-08  4.916805266e-01  4.919605806e-01 
 5.310000000e-08  3.907134694e-01  3.915595177e-01 
 5.510000000e-08  2.333177118e-01  2.341276365e-01 
 5.710000000e-08  1.174012024e-01  1.177280373e-01 
 5.910000000e-08  1.150718851e-01  1.147821381e-01 
 6.110000000e-08  2.277820732e-01  2.270142679e-01 
 6.310000000e-08  3.854173638e-01  3.845840929e-01 
 6.510000000e-08  4.899153153e-01  4.895933841e-01 
 6.710000000e-08  4.762728907e-01  4.767397977e-01 
 6.910000000e-08  3.529788273e-01  3.538733733e-01 
 7.110000000e-08  1.967288974e-01  1.974473210e-01 
 1.100000000e-09  4.048051111e-01  4.038227063e-01 
 3.100000000e-09  4.999815603e-01  4.999597458e-01 
 5.100000000e-09  4.067623386e-01  4.077752960e-01 
 7.100000000e-09  2.129674252e-01  2.139266266e-01 
 9.100000000e-09  1.011602441e-01  1.012738293e-01 
 1.110000000e-08  1.766746725e-01  1.758930713e-01 
 1.310000000e-08  3.683734601e-01  3.673093643e-01 
 1.510000000e-08  4.956561121e-01  4.953829839e-01 
 1.710000000e-08  4.386166617e-01  4.394936534e-01 
 1.910000000e-08  2.509931808e-01  2.520512064e-01 
 2.110000000e-08  1.095352030e-01  1.098436042e-01 
 2.310000000e-08  1.475075141e-01  1.468773761e-01 
 2.510000000e-08  3.291423924e-01  3.280544221e-01 
 2.710000000e-08  4.833204931e-01  4.828139341e-01 
 2.910000000e-08  4.647961679e-01  4.654916550e-01 
 3.110000000e-08  2.910251466e-01  2.921430602e-01 
 3.310000000e-08  1.257077186e-01  1.262040460e-01 
 3.510000000e-08  1.245836598e-01  1.241239651e-01 
 3.710000000e-08  2.887180667e-01  2.876509709e-01 
 3.910000000e-08  4.634796392e-01  4.627697208e-01 
 4.110000000e-08  4.842290874e-01  4.847060398e-01 
 4.310000000e-08  3.314244738e-01  3.325573989e-01 
 4.510000000e-08  1.490156093e-01  1.496872393e-01 
 4.710000000e-08  1.088416155e-01  1.085660785e-01 
 4.910000000e-08  2.487555396e-01  2.477499176e-01 
 5.110000000e-08  4.369457573e-01  4.360717809e-01 
 5.310000000e-08  4.961198323e-01  4.963530056e-01 
 5.510000000e-08  3.705372763e-01  3.716359047e-01 
 5.710000000e-08  1.785046069e-01  1.793327303e-01 
 5.910000000e-08  1.009258143e-01  1.008430488e-01 
 6.110000000e-08  2.108909820e-01  2.099823591e-01 
 6.310000000e-08  4.048050915e-01  4.038122109e-01 
 6.510000000e-08  4.999815603e-01  4.999597458e-01 
 6.710000000e-08  4.067623396e-01  4.077752971e-01 
 6.910000000e-08  2.129674257e-01  2.139266272e-01 
 7.110000000e-08  1.011602441e-01  1.012738293e-01 
 1.100000000e-09  4.229168932e-01  4.218102405e-01 
 3.100000000e-09  4.906133232e-01  4.910506323e-01 
 5.100000000e-09  3.094892864e-01  3.108497640e-01 
 7.100000000e-09  1.159764728e-01  1.164548071e-01 
 9.100000000e-09  1.626837679e-01  1.618269786e-01 
 1.110000000e-08  3.886468260e-01  3.874136117e-01 
 1.310000000e-08  4.988860101e-01  4.990230435e-01 
 1.510000000e-08  3.495044293e-01  3.508548175e-01 
 1.710000000e-08  1.355005763e-01  1.361992253e-01 
 1.910000000e-08  1.362286707e-01  1.355645755e-01 
 2.110000000e-08  3.507472900e-01  3.494548530e-01 
 2.310000000e-08  4.990164554e-01  4.988485702e-01 
 2.510000000e-08  3.874928735e-01  3.887722098e-01 
 2.710000000e-08  1.617590755e-01  1.626593794e-01 
 2.910000000e-08  1.164787002e-01  1.160274754e-01 
 3.110000000e-08  3.107698977e-01  3.094734640e-01 
 3.310000000e-08  4.909992305e-01  4.905392439e-01 
 3.510000000e-08  4.218994498e-01  4.230461713e-01 
 3.710000000e-08  1.936769125e-01  1.947524051e-01 
 3.910000000e-08  1.042423999e-01  1.040179969e-01 
 4.110000000e-08  2.703514117e-01  2.691023037e-01 
 4.310000000e-08  4.751624559e-01  4.744389936e-01 
 4.510000000e-08  4.513156197e-01  4.522717188e-01 
 4.710000000e-08  2.299473728e-01  2.311633756e-01 
 4.910000000e-08  1.000206469e-01  1.000309067e-01 
 5.110000000e-08  2.311466809e-01  2.299908248e-01 
 5.310000000e-08  4.521543780e-01  4.512088661e-01 
 5.510000000e-08  4.745371346e-01  4.752526641e-01 
 5.710000000e-08  2.690855835e-01  2.703991538e-01 
 5.910000000e-08  1.039861629e-01  1.042327856e-01 
 6.110000000e-08  1.947608802e-01  1.937379822e-01 
 6.310000000e-08  4.229168581e-01  4.217997460e-01 
 6.510000000e-08  4.906133230e-01  4.910506317e-01 
 6.710000000e-08  3.094892866e-01  3.108497646e-01 
 6.910000000e-08  1.159764730e-01  1.164548065e-01 
 7.110000000e-08  1.626837675e-01  1.618269784e-01 
 1.100000000e-09  4.395322065e-01  4.383432798e-01 
 3.100000000e-09  4.627228757e-01  4.637117024e-01 
 5.100000000e-09  2.097550909e-01  2.110963727e-01 
 7.100000000e-09  1.099398233e-01  1.095339882e-01 
 9.100000000e-09  3.326894204e-01  3.311758516e-01 
 1.110000000e-08  4.999555966e-01  4.999488417e-01 
 1.310000000e-08  3.278710553e-01  3.294639053e-01 
 1.510000000e-08  1.084840302e-01  1.089003427e-01 
 1.710000000e-08  2.141262508e-01  2.128450948e-01 
 1.910000000e-08  4.655110114e-01  4.645440323e-01 
 2.110000000e-08  4.359955627e-01  4.372361219e-01 
 2.310000000e-08  1.756808932e-01  1.768351394e-01 
 2.510000000e-08  1.263476075e-01  1.256846936e-01 
 2.710000000e-08  3.717335364e-01  3.702595628e-01 
 2.910000000e-08  4.953712170e-01  4.957185528e-01 
 3.110000000e-08  2.874403212e-01  2.890097977e-01 
 3.310000000e-08  1.008215134e-01  1.009625813e-01 
 3.510000000e-08  2.522388178e-01  2.508275940e-01 
 3.710000000e-08  4.847136185e-01  4.840316978e-01 
 3.910000000e-08  4.037008133e-01  4.051296739e-01 
 4.110000000e-08  1.466960205e-01  1.476275283e-01 
 4.310000000e-08  1.498651096e-01  1.489656698e-01 
 4.510000000e-08  4.078405266e-01  4.064714818e-01 
 4.710000000e-08  4.827885864e-01  4.834742176e-01 
 4.910000000e-08  2.475236285e-01  2.490064753e-01 
 5.110000000e-08  1.013134421e-01  1.011780047e-01 
 5.310000000e-08  2.923067184e-01  2.908158173e-01 
 5.510000000e-08  4.963539532e-01  4.959976557e-01 
 5.710000000e-08  3.671606918e-01  3.687075670e-01 
 5.910000000e-08  1.239871397e-01  1.246696948e-01 
 6.110000000e-08  1.795295071e-01  1.784214733e-01 
 6.310000000e-08  4.395321542e-01  4.383333876e-01 
 6.510000000e-08  4.627228738e-01  4.637116992e-01 
 6.710000000e-08  2.097550895e-01  2.110963702e-01 
 6.910000000e-08  1.099398234e-01  1.095339882e-01 
 7.110000000e-08  3.326894204e-01  3.311758513e-01 
 1.100000000e-09  4.544487902e-01  4.532260825e-01 
 3.100000000e-09  4.190227059e-01  4.205627805e-01 
 5.100000000e-09  1.334986489e-01  1.344176887e-01 
 7.100000000e-09  1.978395887e-01  1.964609919e-01 
 9.100000000e-09  4.768531194e-01  4.759194667e-01 
 1.110000000e-08  3.842424630e-01  3.859568525e-01 
 1.310000000e-08  1.146152989e-01  1.152369733e-01 
 1.510000000e-08  2.345349616e-01  2.329848575e-01 
 1.710000000e-08  4.920169729e-01  4.914342915e-01 
 1.910000000e-08  3.460134210e-01  3.478202627e-01 
 2.110000000e-08  1.033214523e-01  1.036310145e-01 
 2.310000000e-08  2.739105373e-01  2.722429557e-01 
 2.510000000e-08  4.993196442e-01  4.991243546e-01 
 2.710000000e-08  3.059005577e-01  3.077185190e-01 
 2.910000000e-08  1.000796530e-01  1.000716455e-01 
 3.110000000e-08  3.143540972e-01  3.126309061e-01 
 3.310000000e-08  4.984623138e-01  4.986702973e-01 
 3.510000000e-08  2.655459819e-01  2.672987953e-01 
 3.710000000e-08  1.050227914e-01  1.047004957e-01 
 3.910000000e-08  3.542097158e-01  3.524993767e-01 
 4.110000000e-08  4.894802099e-01  4.900846997e-01 
 4.310000000e-08  2.266017039e-01  2.282214252e-01 
 4.510000000e-08  1.179486476e-01  1.173237755e-01 
 4.710000000e-08  3.918455927e-01  3.902211085e-01 
 4.910000000e-08  4.727411262e-01  4.737127123e-01 
 5.110000000e-08  1.906620284e-01  1.920909987e-01 
 5.310000000e-08  1.383281285e-01  1.374207232e-01 
 5.510000000e-08  4.257208690e-01  4.242567989e-01 
 5.710000000e-08  4.489303726e-01  4.502192383e-01 
 5.910000000e-08  1.591982990e-01  1.603899938e-01 
 6.110000000e-08  1.653269099e-01  1.641654169e-01 
 6.310000000e-08  4.544487191e-01  4.532172642e-01 
 6.510000000e-08  4.190227082e-01  4.205627833e-01 
 6.710000000e-08  1.334986497e-01  1.344176899e-01 
 6.910000000e-08  1.978395893e-01  1.964609933e-01 
 7.110000000e-08  4.768531200e-01  4.759194675e-01 
 1.100000000e-09  4.674851140e-01  4.662826264e-01 
 3.100000000e-09  3.637614115e-01  3.657557466e-01 
 5.100000000e-09  1.005514361e-01  1.007095225e-01 
 7.100000000e-09  3.362250551e-01  3.342872150e-01 
 9.100000000e-09  4.812849808e-01  4.821874054e-01 
 1.110000000e-08  1.729004762e-01  1.743754709e-01 
 1.310000000e-08  1.824257580e-01  1.809804809e-01 
 1.510000000e-08  4.860427427e-01  4.852005593e-01 
 1.710000000e-08  3.243085758e-01  3.263594373e-01 
 1.910000000e-08  1.017694841e-01  1.015698245e-01 
 2.110000000e-08  3.750687238e-01  3.731901919e-01 
 2.310000000e-08  4.605935295e-01  4.618810108e-01 
 2.510000000e-08  1.444296074e-01  1.456144654e-01 
 2.710000000e-08  2.173910261e-01  2.157285469e-01 
 2.910000000e-08  4.969837894e-01  4.965590406e-01 
 3.110000000e-08  2.838604149e-01  2.858786731e-01 
 3.310000000e-08  1.111034317e-01  1.105550267e-01 
 3.510000000e-08  4.108385772e-01  4.091024208e-01 
 3.710000000e-08  4.333277725e-01  4.349347028e-01 
 3.910000000e-08  1.223274425e-01  1.231884050e-01 
 4.110000000e-08  2.557384674e-01  2.539156451e-01 
 4.310000000e-08  4.998604253e-01  4.998819424e-01 
 4.510000000e-08  2.440727451e-01  2.459768502e-01 
 4.710000000e-08  1.281712841e-01  1.272926746e-01 
 4.910000000e-08  4.420701887e-01  4.405587618e-01 
 5.110000000e-08  4.006038740e-01  4.024493957e-01 
 5.310000000e-08  1.074989674e-01  1.080140187e-01 
 5.510000000e-08  2.958979222e-01  2.939806655e-01 
 5.710000000e-08  4.945550514e-01  4.950274303e-01 
 5.910000000e-08  2.065743939e-01  2.082933588e-01 
 6.110000000e-08  1.522743321e-01  1.510935663e-01 
 6.310000000e-08  4.674850254e-01  4.662752071e-01 
 6.510000000e-08  3.637614120e-01  3.657557467e-01 
 6.710000000e-08  1.005514364e-01  1.007095222e-01 
 6.910000000e-08  3.362250592e-01  3.342872216e-01 
 7.110000000e-08  4.812849823e-01  4.821874080e-01 
 1.100000000e-09  4.784825857e-01  4.773585815e-01 
 3.100000000e-09  3.023104163e-01  3.045815275e-01 
 5.100000000e-09  1.194812266e-01  1.186700881e-01 
 7.100000000e-09  4.566895059e-01  4.551843638e-01 
 9.100000000e-09  3.425071069e-01  3.447671288e-01 
 1.110000000e-08  1.058703022e-01  1.054380631e-01 
 1.310000000e-08  4.284812657e-01  4.266795841e-01 
 1.510000000e-08  3.809634615e-01  3.831111854e-01 
 1.710000000e-08  1.002075446e-01  1.001701262e-01 
 1.910000000e-08  3.950124613e-01  3.930024022e-01 
 2.110000000e-08  4.161052565e-01  4.180391082e-01 
 2.310000000e-08  1.027245979e-01  1.030870400e-01 
 2.510000000e-08  3.576532652e-01  3.555267352e-01 
 2.710000000e-08  4.464939589e-01  4.481187072e-01 
 2.910000000e-08  1.133181959e-01  1.140742695e-01 
 3.110000000e-08  3.179331923e-01  3.157810283e-01 
 3.310000000e-08  4.708856012e-01  4.721194181e-01 
 3.510000000e-08  1.315544085e-01  1.326859420e-01 
 3.710000000e-08  2.774785289e-01  2.753867287e-01 
 3.910000000e-08  4.882816761e-01  4.890626120e-01 
 4.110000000e-08  1.566864685e-01  1.581625492e-01 
 4.310000000e-08  2.379456887e-01  2.359926894e-01 
 4.510000000e-08  4.979699955e-01  4.982609011e-01 
 4.710000000e-08  1.876853543e-01  1.894615280e-01 
 4.910000000e-08  2.009533916e-01  1.992083182e-01 
 5.110000000e-08  4.995538386e-01  4.993450191e-01 
 5.310000000e-08  2.232819315e-01  2.252997056e-01 
 5.510000000e-08  1.680163391e-01  1.665380280e-01 
 5.710000000e-08  4.929681974e-01  4.922774531e-01 
 5.910000000e-08  2.620188893e-01  2.642058762e-01 
 6.110000000e-08  1.404831778e-01  1.393197715e-01 
 6.310000000e-08  4.784824861e-01  4.773527307e-01 
 6.510000000e-08  3.023104175e-01  3.045815286e-01 
 6.710000000e-08  1.194812250e-01  1.186700856e-01 
 6.910000000e-08  4.566895062e-01  4.551843653e-01 
 7.110000000e-08  3.425071099e-01  3.447671341e-01 
 1.100000000e-09  4.873074922e-01  4.863230378e-01 
 3.100000000e-09  2.406417959e-01  2.429599921e-01 
 5.100000000e-09  1.853623909e-01  1.835677975e-01 
 7.100000000e-09  4.996961279e-01  4.997588133e-01 
 9.100000000e-09  1.701643635e-01  1.719521544e-01 
 1.110000000e-08  2.592532195e-01  2.570104009e-01 
 1.310000000e-08  4.797188965e-01  4.808456857e-01 
 1.510000000e-08  1.207292338e-01  1.217595209e-01 
 1.710000000e-08  3.397479893e-01  3.373840599e-01 
 1.910000000e-08  4.306143331e-01  4.325885636e-01 
 2.110000000e-08  1.003501348e-01  1.005144596e-01 
 2.310000000e-08  4.137981100e-01  4.117008996e-01 
 2.510000000e-08  3.603407175e-01  3.627784309e-01 
 2.710000000e-08  1.123320477e-01  1.116286679e-01 
 2.910000000e-08  4.694009493e-01  4.679605813e-01 
 3.110000000e-08  2.802867332e-01  2.827471886e-01 
 3.310000000e-08  1.547343326e-01  1.532594748e-01 
 3.510000000e-08  4.975454157e-01  4.970662559e-01 
 3.710000000e-08  2.034264915e-01  2.055155722e-01 
 3.910000000e-08  2.206841262e-01  2.186296879e-01 
 4.110000000e-08  4.936716963e-01  4.942797370e-01 
 4.310000000e-08  1.422171907e-01  1.436469626e-01 
 4.510000000e-08  2.994903536e-01  2.971413249e-01 
