 time                v(vi)               v(vo)              
 1.800000000000e-09  3.362692567753e-01  2.606498167786e-01 
 3.800000000000e-09  3.751190843826e-01  2.992121584485e-01 
 5.800000000000e-09  4.108935033978e-01  3.351549725765e-01 
 7.800000000000e-09  4.421279013742e-01  3.669929710967e-01 
 9.800000000000e-09  4.675435261920e-01  3.934248561864e-01 
 1.180000000000e-08  4.860998913752e-01  4.133709830323e-01 
 1.380000000000e-08  4.970372553385e-01  4.260130960276e-01 
 1.580000000000e-08  4.999079156472e-01  4.308399612911e-01 
 1.780000000000e-08  4.945943089272e-01  4.276476455529e-01 
 1.980000000000e-08  4.813139956360e-01  4.165679142202e-01 
 2.180000000000e-08  4.606106907203e-01  3.980529560301e-01 
 2.380000000000e-08  4.333319867047e-01  3.728599687240e-01 
 2.580000000000e-08  4.005947031806e-01  3.420174475779e-01 
 2.780000000000e-08  3.637390801030e-01  3.067884820200e-01 
 2.980000000000e-08  3.242739939801e-01  2.686121223770e-01 
 3.180000000000e-08  2.838151356130e-01  2.290482501269e-01 
 3.380000000000e-08  2.440188881722e-01  1.897179027500e-01 
 3.580000000000e-08  2.065144889330e-01  1.522283595061e-01 
 3.780000000000e-08  1.728373760879e-01  1.181181762417e-01 
 3.980000000000e-08  1.443662859310e-01  8.878457057109e-02 
 4.180000000000e-08  1.222668225780e-01  6.543248668506e-02 
 4.380000000000e-08  1.074437433585e-01  4.902216117469e-02 
 4.580000000000e-08  1.005039385916e-01  4.022897410160e-02 
 4.780000000000e-08  1.017314965501e-01  3.941508509691e-02 
 4.980000000000e-08  1.110762099413e-01  4.661338940470e-02 
 5.180000000000e-08  1.281555086958e-01  6.152745919623e-02 
 5.380000000000e-08  1.522701730702e-01  8.354206631948e-02 
 5.580000000000e-08  1.824329460202e-01  1.117518246983e-01 
 5.780000000000e-08  2.174089629551e-01  1.449973430577e-01 
 5.980000000000e-08  2.557662849293e-01  1.819157573268e-01 
 6.180000000000e-08  2.959345495630e-01  2.209938157443e-01 
 6.380000000000e-08  3.362692571652e-01  2.606327290463e-01 
 6.580000000000e-08  3.751190840805e-01  2.992120937996e-01 
 6.780000000000e-08  4.108935070725e-01  3.351547257564e-01 
 6.980000000000e-08  4.421278980403e-01  3.669930138682e-01 
 7.180000000000e-08  4.675435266875e-01  3.934242295098e-01 
 1.800000000000e-09  3.713359131872e-01  2.859156056395e-01 
 3.800000000000e-09  4.392384759841e-01  3.563216612286e-01 
 5.800000000000e-09  4.845724390626e-01  4.071103208587e-01 
 7.800000000000e-09  4.999899428125e-01  4.300104244141e-01 
 9.800000000000e-09  4.829921479977e-01  4.213050036538e-01 
 1.180000000000e-08  4.363343629062e-01  3.823949720950e-01 
 1.380000000000e-08  3.675791602510e-01  3.195721897483e-01 
 1.580000000000e-08  2.878706059505e-01  2.430079559469e-01 
 1.780000000000e-08  2.101279939705e-01  1.651041415937e-01 
 1.980000000000e-08  1.469520478412e-01  9.849130967006e-02 
 2.180000000000e-08  1.085824927285e-01  5.398686453114e-02 
 2.380000000000e-08  1.012385994423e-01  3.883136617777e-02 
 2.580000000000e-08  1.261109676163e-01  5.549069958957e-02 
 2.780000000000e-08  1.791681019361e-01  1.012433145707e-01 
 2.980000000000e-08  2.518105245454e-01  1.686400903342e-01 
 3.180000000000e-08  3.322638041793e-01  2.467394047308e-01 
 3.380000000000e-08  4.074874892564e-01  3.228930020810e-01 
 3.580000000000e-08  4.652889846351e-01  3.847816455126e-01 
 3.780000000000e-08  4.962994665537e-01  4.223957457946e-01 
 3.980000000000e-08  4.954927923154e-01  4.296421542355e-01 
 4.180000000000e-08  4.629998693721e-01  4.053384653477e-01 
 4.380000000000e-08  4.040874488159e-01  3.534103082727e-01 
 4.580000000000e-08  3.283042650916e-01  2.822623550236e-01 
 4.780000000000e-08  2.479335220986e-01  2.034153833465e-01 
 4.980000000000e-08  1.760017962706e-01  1.296450513662e-01 
 5.180000000000e-08  1.241680211203e-01  7.292168847388e-02 
 5.380000000000e-08  1.008336260505e-01  4.246536879334e-02 
 5.580000000000e-08  1.097809271814e-01  4.323385650372e-02 
 5.780000000000e-08  1.495600151786e-01  7.509635296881e-02 
 5.980000000000e-08  2.137232070880e-01  1.328571952324e-01 
 6.180000000000e-08  2.918707604717e-01  2.071257528276e-01 
 6.380000000000e-08  3.713359397961e-01  2.858613938028e-01 
 6.580000000000e-08  4.392385041208e-01  3.563214171329e-01 
 6.780000000000e-08  4.845724491910e-01  4.071104714376e-01 
 6.980000000000e-08  4.999898565181e-01  4.300097419162e-01 
 7.180000000000e-08  4.829921583561e-01  4.213056408641e-01 
 1.800000000000e-09  4.040370830070e-01  3.102828316545e-01 
 3.800000000000e-09  4.829687730730e-01  3.999625609837e-01 
 5.800000000000e-09  4.963105272422e-01  4.306191279020e-01 
 7.800000000000e-09  4.392804353296e-01  3.911500702151e-01 
 9.800000000000e-09  3.323228340819e-01  2.956520614509e-01 
 1.180000000000e-08  2.137786916121e-01  1.783292781142e-01 
 1.380000000000e-08  1.261420356094e-01  8.124456582024e-02 
 1.580000000000e-08  1.008279845041e-01  3.926996296245e-02 
 1.780000000000e-08  1.469120551089e-01  6.749497729256e-02 
 1.980000000000e-08  2.478747245058e-01  1.557296600443e-01 
 2.180000000000e-08  3.675232824698e-01  2.722664295409e-01 
 2.380000000000e-08  4.629661063077e-01  3.753714007794e-01 
 2.580000000000e-08  4.999893009173e-01  4.281643329790e-01 
 2.780000000000e-08  4.653216530866e-01  4.117272497600e-01 
 2.980000000000e-08  3.713913421576e-01  3.319012198355e-01 
 3.180000000000e-08  2.518696714326e-01  2.172601401331e-01 
 3.380000000000e-08  1.496011285779e-01  1.088964822147e-01 
 3.580000000000e-08  1.012458053499e-01  4.564254632863e-02 
 3.780000000000e-08  1.241381963944e-01  5.039729101379e-02 
 3.980000000000e-08  2.100731240606e-01  1.212614908063e-01 
 4.180000000000e-08  3.282449947047e-01  2.327372332771e-01 
 4.380000000000e-08  4.362915841149e-01  3.450350260100e-01 
 4.580000000000e-08  4.954805680966e-01  4.178038624378e-01 
 4.780000000000e-08  4.845946168864e-01  4.250648840826e-01 
 4.980000000000e-08  4.075371090065e-01  3.641741608152e-01 
 5.180000000000e-08  2.919310665686e-01  2.569093357954e-01 
 5.380000000000e-08  1.792174984119e-01  1.417055513613e-01 
 5.580000000000e-08  1.098004310309e-01  5.982797903703e-02 
 5.780000000000e-08  1.085642686463e-01  4.085747003389e-02 
 5.980000000000e-08  1.759532440980e-01  9.144684853473e-02 
 6.180000000000e-08  2.878103201098e-01  1.934239663070e-01 
 6.380000000000e-08  4.040370300466e-01  3.101920277087e-01 
 6.580000000000e-08  4.829687533106e-01  3.999619250102e-01 
 6.780000000000e-08  4.963105091242e-01  4.306190871608e-01 
 6.980000000000e-08  4.392804079579e-01  3.911506253605e-01 
 7.180000000000e-08  3.323228312699e-01  2.956537810064e-01 
 1.800000000000e-09  4.332883363972e-01  3.333274310550e-01 
 3.800000000000e-09  4.999060283953e-01  4.253189833080e-01 
 5.800000000000e-09  4.421688999333e-01  3.990800551063e-01 
 7.800000000000e-09  2.959948357807e-01  2.706738826868e-01 
 9.800000000000e-09  1.523124241239e-01  1.199331606902e-01 
 1.180000000000e-08  1.004996454943e-01  4.072163764707e-02 
 1.380000000000e-08  1.727895820743e-01  8.241442751165e-02 
 1.580000000000e-08  3.242145067445e-01  2.189145333096e-01 
 1.780000000000e-08  4.605758572670e-01  3.652525414082e-01 
 1.980000000000e-08  4.970468054238e-01  4.305771362625e-01 
 2.180000000000e-08  4.109422305448e-01  3.742468427995e-01 
 2.380000000000e-08  2.558256142120e-01  2.311751088600e-01 
 2.580000000000e-08  1.281878650670e-01  9.034632354403e-02 
 2.780000000000e-08  1.074267800073e-01  3.943403098268e-02 
 2.980000000000e-08  2.064602952272e-01  1.102891832865e-01 
 3.180000000000e-08  3.636827407521e-01  2.585073198253e-01 
 3.380000000000e-08  4.812894177770e-01  3.919733851501e-01 
 3.580000000000e-08  4.861210639742e-01  4.278298064233e-01 
 3.780000000000e-08  3.751739530248e-01  3.437057751147e-01 
 3.980000000000e-08  2.174648609359e-01  1.918200854623e-01 
 4.180000000000e-08  1.110972275067e-01  6.668243766328e-02 
 4.380000000000e-08  1.222382626994e-01  4.627156779347e-02 
 4.580000000000e-08  2.439604315760e-01  1.432574735199e-01 
 4.780000000000e-08  4.005435490199e-01  2.971294602397e-01 
 4.980000000000e-08  4.945809021414e-01  4.122724952569e-01 
 5.180000000000e-08  4.675750989455e-01  4.171860573160e-01 
 5.380000000000e-08  3.363279698213e-01  3.087029669579e-01 
 5.580000000000e-08  1.824831901570e-01  1.542266905293e-01 
 5.780000000000e-08  1.017401861036e-01  4.991059055007e-02 
 5.980000000000e-08  1.443272159869e-01  6.077831772214e-02 
 6.180000000000e-08  2.837548847686e-01  1.799670308535e-01 
 6.380000000000e-08  4.332882498894e-01  3.332015757199e-01 
 6.580000000000e-08  4.999057668781e-01  4.253181223861e-01 
 6.780000000000e-08  4.421689301791e-01  3.990786907782e-01 
 6.980000000000e-08  2.959948355737e-01  2.706717930506e-01 
 7.180000000000e-08  1.523122140341e-01  1.199324853913e-01 
 1.800000000000e-09  4.581191296069e-01  3.546482139715e-01 
 3.800000000000e-09  4.875704771413e-01  4.295910720545e-01 
 5.800000000000e-09  3.403181750247e-01  3.213446664800e-01 
 7.800000000000e-09  1.550843898734e-01  1.315353930335e-01 
 9.800000000000e-09  1.063690486016e-01  3.913576523977e-02 
 1.180000000000e-08  2.400692014416e-01  1.312910705745e-01 
 1.380000000000e-08  4.302296214489e-01  3.208907556309e-01 
 1.580000000000e-08  4.977017734483e-01  4.295237054205e-01 
 1.780000000000e-08  3.789255295689e-01  3.549222174567e-01 
 1.980000000000e-08  1.857974445509e-01  1.671338823512e-01 
 2.180000000000e-08  1.002535798699e-01  4.316920524954e-02 
 2.380000000000e-08  2.028859685596e-01  9.998362502015e-02 
 2.580000000000e-08  3.970085138324e-01  2.837792581988e-01 
 2.780000000000e-08  4.997403308978e-01  4.214965174504e-01 
 2.980000000000e-08  4.143015174323e-01  3.835772903505e-01 
 3.180000000000e-08  2.211852714081e-01  2.054394053934e-01 
 3.380000000000e-08  1.023162029777e-01  5.506137072431e-02 
 3.580000000000e-08  1.696788475515e-01  7.419190539635e-02 
 3.780000000000e-08  3.598157787305e-01  2.446651265902e-01 
 3.980000000000e-08  4.936008741108e-01  4.058401174950e-01 
 4.180000000000e-08  4.449983034644e-01  4.061408103580e-01 
 4.380000000000e-08  2.597998518647e-01  2.450734310364e-01 
 4.580000000000e-08  1.124716072755e-01  7.432556377868e-02 
 4.780000000000e-08  1.418069433273e-01  5.497469023586e-02 
 4.980000000000e-08  3.201739823223e-01  2.051432231439e-01 
 5.180000000000e-08  4.795351586428e-01  3.831953221376e-01 
 5.380000000000e-08  4.697594328861e-01  4.216886690347e-01 
 5.580000000000e-08  3.000602396239e-01  2.842117803738e-01 
 5.780000000000e-08  1.303044894288e-01  1.001706160040e-01 
 5.980000000000e-08  1.204116394545e-01  4.311775186493e-02 
 6.180000000000e-08  2.797061901865e-01  1.668275618549e-01 
 6.380000000000e-08  4.581192678828e-01  3.544891315595e-01 
 6.580000000000e-08  4.875704288379e-01  4.295906078563e-01 
 6.780000000000e-08  3.403181449768e-01  3.213458014109e-01 
 6.980000000000e-08  1.550843567343e-01  1.315354887648e-01 
 7.180000000000e-08  1.063691149621e-01  3.913663882703e-02 
 1.800000000000e-09  4.777061822706e-01  3.738775616643e-01 
 3.800000000000e-09  4.477683870914e-01  4.123032976746e-01 
 5.800000000000e-09  2.249382366884e-01  2.192996209535e-01 
 7.800000000000e-09  1.000901944583e-01  4.658919821687e-02 
 9.800000000000e-09  2.362028740496e-01  1.198918417570e-01 
 1.180000000000e-08  4.555973959632e-01  3.431488665918e-01 
 1.380000000000e-08  4.718733732071e-01  4.252206552501e-01 
 1.580000000000e-08  2.637906562127e-01  2.588871397321e-01 
 1.780000000000e-08  1.029738035556e-01  6.111775704712e-02 
 1.980000000000e-08  1.993520235239e-01  9.039980239796e-02 
 2.180000000000e-08  4.271176624043e-01  3.081856635445e-01 
 2.380000000000e-08  4.889421674440e-01  4.303467696635e-01 
 2.580000000000e-08  3.041255959089e-01  2.974817483716e-01 
 2.780000000000e-08  1.139238521778e-01  8.276770213515e-02 
 2.980000000000e-08  1.666212404088e-01  6.681600288840e-02 
 3.180000000000e-08  3.934333144311e-01  2.702219728327e-01 
 3.380000000000e-08  4.982757768749e-01  4.274757626565e-01 
 3.580000000000e-08  3.442916151581e-01  3.335092374368e-01 
 3.780000000000e-08  1.324913119298e-01  1.106543722758e-01 
 3.980000000000e-08  1.393523193028e-01  5.011097712186e-02 
 4.180000000000e-08  3.559240811834e-01  2.308172161082e-01 
 4.380000000000e-08  4.994919227236e-01  4.167289793158e-01 
 4.580000000000e-08  3.826443517576e-01  3.654914553322e-01 
 4.780000000000e-08  1.579165110774e-01  1.436337183214e-01 
 4.980000000000e-08  1.186595199235e-01  4.097312119832e-02 
 5.180000000000e-08  3.161250425295e-01  1.915676284528e-01 
 5.380000000000e-08  4.925407463576e-01  3.985517403199e-01 
 5.580000000000e-08  4.176140019225e-01  3.921188976880e-01 
 5.780000000000e-08  1.891585773597e-01  1.803505266985e-01 
 5.980000000000e-08  1.053917105401e-01  3.978266422289e-02 
 6.180000000000e-08  2.756657635461e-01  1.540823382701e-01 
 6.380000000000e-08  4.777062516268e-01  3.736853789364e-01 
 6.580000000000e-08  4.477685380942e-01  4.123031049959e-01 
 6.780000000000e-08  2.249383880811e-01  2.192998668872e-01 
 6.980000000000e-08  1.000910298141e-01  4.658921443638e-02 
 7.180000000000e-08  2.362028046775e-01  1.198928459974e-01 
 1.800000000000e-09  4.914012814359e-01  3.906815839022e-01 
 3.800000000000e-09  3.863289867703e-01  3.753628584109e-01 
 5.800000000000e-09  1.347477089447e-01  1.217370357497e-01 
 7.800000000000e-09  1.636198812198e-01  6.031705341080e-02 
 9.800000000000e-09  4.239530604417e-01  2.951507895978e-01 
 1.180000000000e-08  4.739161035995e-01  4.277700119407e-01 
 1.380000000000e-08  2.287220210453e-01  2.331330876303e-01 
 1.580000000000e-08  1.044937789183e-01  4.141410335497e-02 
 1.780000000000e-08  3.120695353473e-01  1.782596325713e-01 
 1.980000000000e-08  4.991610322059e-01  4.110550020009e-01 
 2.180000000000e-08  3.482465537029e-01  3.451328224081e-01 
 2.380000000000e-08  1.154535163521e-01  9.195305498410e-02 
 2.580000000000e-08  1.958596117369e-01  8.158125875807e-02 
 2.780000000000e-08  4.530114705934e-01  3.312977007315e-01 
 2.980000000000e-08  4.504771850983e-01  4.175424383212e-01 
 3.180000000000e-08  1.925661283871e-01  1.938042408723e-01 
 3.380000000000e-08  1.169828484469e-01  3.980874180315e-02 
 3.580000000000e-08  3.520092832621e-01  2.170379532754e-01 
 3.780000000000e-08  4.987675057033e-01  4.244537304636e-01 
 3.980000000000e-08  3.081891830590e-01  3.103813710368e-01 
 4.180000000000e-08  1.037135661685e-01  6.803146810811e-02 
 4.380000000000e-08  2.323625843447e-01  1.091158194935e-01 
 4.580000000000e-08  4.758048671144e-01  3.635046809448e-01 
 4.780000000000e-08  4.208773443614e-01  3.998310799728e-01 
 4.980000000000e-08  1.608071734658e-01  1.561581503023e-01 
 5.180000000000e-08  1.369637564019e-01  4.619858133458e-02 
 5.380000000000e-08  3.898198827565e-01  2.565399527243e-01 
 5.580000000000e-08  4.902358269751e-01  4.301051089777e-01 
 5.780000000000e-08  2.677964292065e-01  2.725308388015e-01 
 5.980000000000e-08  1.000106659906e-01  5.095139720619e-02 
 6.180000000000e-08  2.716355830973e-01  1.417878989619e-01 
 6.380000000000e-08  4.914008366210e-01  3.904572889555e-01 
 6.580000000000e-08  3.863287842449e-01  3.753626501932e-01 
 6.780000000000e-08  1.347476038014e-01  1.217356547747e-01 
 6.980000000000e-08  1.636198731643e-01  6.031774748922e-02 
 7.180000000000e-08  4.239524706880e-01  2.951507391435e-01 
 1.800000000000e-09  4.987480974655e-01  4.047685761146e-01 
 3.800000000000e-09  3.122494411789e-01  3.228572770568e-01 
 5.800000000000e-09  1.000114963304e-01  5.622182535690e-02 
 7.800000000000e-09  3.080089344994e-01  1.652864590318e-01 
 9.800000000000e-09  4.991762144473e-01  4.204884419593e-01 
 1.180000000000e-08  2.718156773867e-01  2.859420915962e-01 
 1.380000000000e-08  1.036772978136e-01  4.401159781510e-02 
 1.580000000000e-08  3.480731660621e-01  2.034020439318e-01 
 1.780000000000e-08  4.914510595088e-01  4.288764902595e-01 
 1.980000000000e-08  2.325354411686e-01  2.469286967969e-01 
 2.180000000000e-08  1.153806113194e-01  3.962720022627e-02 
 2.380000000000e-08  3.861688919731e-01  2.427968743941e-01 
 2.580000000000e-08  4.758871358095e-01  4.293359160537e-01 
 2.780000000000e-08  1.960172815928e-01  2.073539893035e-01 
 2.980000000000e-08  1.346422655530e-01  4.324678397611e-02 
 3.180000000000e-08  4.207370797801e-01  2.818581863310e-01 
 3.380000000000e-08  4.531238761584e-01  4.218365323464e-01 
 3.580000000000e-08  1.637565745353e-01  1.690332247744e-01 
 3.780000000000e-08  1.606736506867e-01  5.471791768318e-02 
 3.980000000000e-08  4.503612714678e-01  3.190075577495e-01 
 4.180000000000e-08  4.240912008160e-01  4.066829330145e-01 
 4.380000000000e-08  1.370725722496e-01  1.333526144864e-01 
 4.580000000000e-08  1.924094800421e-01  7.356490241493e-02 
 4.780000000000e-08  4.738297536774e-01  3.527140590614e-01 
 4.980000000000e-08  3.899783877962e-01  3.844884437080e-01 
 5.180000000000e-08  1.170592614698e-01  1.018248297217e-01 
 5.380000000000e-08  2.285505191209e-01  9.900947172001e-02 
 5.580000000000e-08  4.901823746348e-01  3.816101959522e-01 
 5.780000000000e-08  3.521820203311e-01  3.561599824816e-01 
 5.980000000000e-08  1.045334095702e-01  7.575871740662e-02 
 6.180000000000e-08  2.676168772037e-01  1.300070609296e-01 
 6.380000000000e-08  4.987468799105e-01  4.045133587273e-01 
 6.580000000000e-08  3.122494359096e-01  3.228566095449e-01 
 6.780000000000e-08  1.000116012837e-01  5.622146835860e-02 
 6.980000000000e-08  3.080089524242e-01  1.652856243335e-01 
 7.180000000000e-08  4.991768733987e-01  4.204887122102e-01 
 1.800000000000e-09  4.995022161344e-01  4.158951225803e-01 
 3.800000000000e-09  2.363765976600e-01  2.606167389002e-01 
 5.800000000000e-09  1.323903394674e-01  4.125885998394e-02 
 7.800000000000e-09  4.476500476580e-01  3.063460246009e-01 
 9.800000000000e-09  3.935893491855e-01  3.928325992348e-01 
 1.180000000000e-08  1.054360936857e-01  8.425334725399e-02 
 1.380000000000e-08  3.039450195223e-01  1.527083193769e-01 
 1.580000000000e-08  4.925875798350e-01  4.266870842583e-01 
 1.780000000000e-08  1.995118153195e-01  2.211235696778e-01 
 1.980000000000e-08  1.577853087577e-01  5.003458484230e-02 
 2.180000000000e-08  4.717835173097e-01  3.413792297119e-01 
 2.380000000000e-08  3.560954171329e-01  3.665386782671e-01 
 2.580000000000e-08  1.000961247044e-01  6.236192716522e-02 
 2.780000000000e-08  3.441168810578e-01  1.899742443240e-01 
 2.980000000000e-08  4.777864261780e-01  4.299231468233e-01 
 3.180000000000e-08  1.667611993404e-01  1.821943471369e-01 
 3.380000000000e-08  1.890051491272e-01  6.637959626920e-02 
 3.580000000000e-08  4.888846494456e-01  3.720658821711e-01 
 3.780000000000e-08  3.163044906591e-01  3.348476264193e-01 
 3.980000000000e-08  1.029422938283e-01  4.754751914065e-02 
 4.180000000000e-08  3.824825131967e-01  2.290677034113e-01 
 4.380000000000e-08  4.557059330254e-01  4.251796678687e-01 
 4.580000000000e-08  1.394641607123e-01  1.454246654437e-01 
 4.780000000000e-08  2.247685119521e-01  8.961886783119e-02 
 4.980000000000e-08  4.982530510233e-01  3.971512681148e-01 
 5.180000000000e-08  2.758463661858e-01  2.990499570831e-01 
 5.380000000000e-08  1.138564241571e-01  4.041679356154e-02 
 5.580000000000e-08  4.174707954433e-01  2.683931856971e-01 
 5.780000000000e-08  4.272532258505e-01  4.126485986967e-01 
 5.980000000000e-08  1.187396240147e-01  1.123243159287e-01 
 6.180000000000e-08  2.636116433796e-01  1.187930510283e-01 
 6.380000000000e-08  4.995033297177e-01  4.156102679636e-01 
 6.580000000000e-08  2.363771032986e-01  2.606157891016e-01 
 6.780000000000e-08  1.323903688912e-01  4.125861297356e-02 
 6.980000000000e-08  4.476499796582e-01  3.063463876862e-01 
 7.180000000000e-08  3.935894462399e-01  3.928324112803e-01 
 1.800000000000e-09  4.936435812299e-01  4.238693983930e-01 
 3.800000000000e-09  1.698199187902e-01  1.955688665278e-01 
