 time             v(vi)            v(vo)           
 1.900000000e-09  3.382605944e-01  3.228105360e-01 
 3.900000000e-09  3.769936295e-01  3.623311025e-01 
 5.900000000e-09  4.125745153e-01  3.993042067e-01 
 7.900000000e-09  4.435465758e-01  4.322132377e-01 
 9.900000000e-09  4.686417619e-01  4.597113960e-01 
 1.190000000e-08  4.868327403e-01  4.806729899e-01 
 1.390000000e-08  4.973747036e-01  4.942396305e-01 
 1.590000000e-08  4.998361536e-01  4.998552472e-01 
 1.790000000e-08  4.941162566e-01  4.972890854e-01 
 1.990000000e-08  4.804492491e-01  4.866452605e-01 
 2.190000000e-08  4.593946490e-01  4.683586973e-01 
 2.390000000e-08  4.318144438e-01  4.431775950e-01 
 2.590000000e-08  3.988377761e-01  4.121328588e-01 
 2.790000000e-08  3.618146930e-01  3.764953550e-01 
 2.990000000e-08  3.222609356e-01  3.377250195e-01 
 3.190000000e-08  2.817958213e-01  2.974097377e-01 
 3.390000000e-08  2.420759797e-01  2.572007971e-01 
 3.590000000e-08  2.047275436e-01  2.187449706e-01 
 3.790000000e-08  1.712795503e-01  1.836171803e-01 
 3.990000000e-08  1.431013449e-01  1.532558004e-01 
 4.190000000e-08  1.213465637e-01  1.289038017e-01 
 4.390000000e-08  1.069058441e-01  1.115579756e-01 
 4.590000000e-08  1.003703977e-01  1.019279052e-01 
 4.790000000e-08  1.020078061e-01  1.004073686e-01 
 4.990000000e-08  1.117510594e-01  1.070581329e-01 
 5.190000000e-08  1.292012650e-01  1.216071949e-01 
 5.390000000e-08  1.536440035e-01  1.434584555e-01 
 5.590000000e-08  1.840786375e-01  1.717172716e-01 
 5.790000000e-08  2.192591138e-01  2.052262381e-01 
 5.990000000e-08  2.577451679e-01  2.426137504e-01 
 6.190000000e-08  2.979611442e-01  2.823494047e-01 
 6.390000000e-08  3.382605905e-01  3.228071473e-01 
 6.590000000e-08  3.769936285e-01  3.623310166e-01 
 6.790000000e-08  4.125745155e-01  3.993041391e-01 
 6.990000000e-08  4.435465595e-01  4.322131847e-01 
 7.190000000e-08  4.686417595e-01  4.597114191e-01 
 1.900000000e-09  3.751080862e-01  3.453176208e-01 
 3.900000000e-09  4.421196138e-01  4.184380415e-01 
 5.900000000e-09  4.860955835e-01  4.723810839e-01 
 7.900000000e-09  4.999081688e-01  4.983989654e-01 
 9.900000000e-09  4.813188271e-01  4.922653989e-01 
 1.190000000e-08  4.333407093e-01  4.549613972e-01 
 1.390000000e-08  3.637503169e-01  3.925252309e-01 
 1.590000000e-08  2.838271894e-01  3.150805352e-01 
 1.790000000e-08  2.065254002e-01  2.351908423e-01 
 1.990000000e-08  1.443741361e-01  1.658154996e-01 
 2.190000000e-08  1.074471662e-01  1.182010787e-01 
 2.390000000e-08  1.017299058e-01  1.000637835e-01 
 2.590000000e-08  1.281491765e-01  1.143347340e-01 
 2.790000000e-08  1.824229808e-01  1.586922119e-01 
 2.990000000e-08  2.557544292e-01  2.259415174e-01 
 3.190000000e-08  3.362574933e-01  3.051841001e-01 
 3.390000000e-08  4.108836774e-01  3.835845190e-01 
 3.590000000e-08  4.675371704e-01  4.484461960e-01 
 3.790000000e-08  4.970351933e-01  4.892626999e-01 
 3.990000000e-08  4.945969336e-01  4.994144779e-01 
 4.190000000e-08  4.606175889e-01  4.772431471e-01 
 4.390000000e-08  4.006048467e-01  4.263311785e-01 
 4.590000000e-08  3.242858906e-01  3.549281802e-01 
 4.790000000e-08  2.440306172e-01  2.746154497e-01 
 4.990000000e-08  1.728469683e-01  1.984218865e-01 
 5.190000000e-08  1.222726478e-01  1.387045842e-01 
 5.390000000e-08  1.005048987e-01  1.051429633e-01 
 5.590000000e-08  1.110721551e-01  1.031705572e-01 
 5.790000000e-08  1.522618452e-01  1.330982606e-01 
 5.990000000e-08  2.173978153e-01  1.900681036e-01 
 6.190000000e-08  2.959224922e-01  2.648440637e-01 
 6.390000000e-08  3.751080734e-01  3.453113954e-01 
 6.590000000e-08  4.421196164e-01  4.184380408e-01 
 6.790000000e-08  4.860955607e-01  4.723809429e-01 
 6.990000000e-08  4.999081715e-01  4.983989742e-01 
 7.190000000e-08  4.813187987e-01  4.922654255e-01 
 1.900000000e-09  4.091812536e-01  3.672271965e-01 
 3.900000000e-09  4.853391723e-01  4.627418733e-01 
 5.900000000e-09  4.950573438e-01  4.999744390e-01 
 7.900000000e-09  4.348531064e-01  4.655306190e-01 
 9.900000000e-09  3.263082812e-01  3.717068967e-01 
 1.190000000e-08  2.083329864e-01  2.521492927e-01 
 1.390000000e-08  1.232171841e-01  1.497664466e-01 
 1.590000000e-08  1.014727274e-01  1.012786500e-01 
 1.790000000e-08  1.508949010e-01  1.240399375e-01 
 1.990000000e-08  2.537682710e-01  2.098522075e-01 
 2.190000000e-08  3.732146908e-01  3.279454900e-01 
 2.390000000e-08  4.664150027e-01  4.360239375e-01 
 2.590000000e-08  4.999595559e-01  4.953861617e-01 
 2.790000000e-08  4.618237380e-01  4.847371069e-01 
 2.990000000e-08  3.656792844e-01  4.078343272e-01 
 3.190000000e-08  2.459910399e-01  2.922352928e-01 
 3.390000000e-08  1.456631180e-01  1.794250429e-01 
 3.590000000e-08  1.006600390e-01  1.098776550e-01 
 3.790000000e-08  1.271149634e-01  1.085095698e-01 
 3.990000000e-08  2.155450554e-01  1.757710283e-01 
 4.190000000e-08  3.342505999e-01  2.875281821e-01 
 4.390000000e-08  4.406779633e-01  4.037428159e-01 
 4.590000000e-08  4.966751701e-01  4.828036858e-01 
 4.790000000e-08  4.821695241e-01  4.963763645e-01 
 4.990000000e-08  4.023614738e-01  4.395419289e-01 
 5.190000000e-08  2.858602401e-01  3.326399086e-01 
 5.390000000e-08  1.744275905e-01  2.140251236e-01 
 5.590000000e-08  1.080087072e-01  1.262634416e-01 
 5.790000000e-08  1.104129424e-01  1.008168616e-01 
 5.990000000e-08  1.807795920e-01  1.467710970e-01 
 6.190000000e-08  2.938842545e-01  2.476197005e-01 
 6.390000000e-08  4.091812497e-01  3.672187986e-01 
 6.590000000e-08  4.853391621e-01  4.627420971e-01 
 6.790000000e-08  4.950573623e-01  4.999744040e-01 
 6.990000000e-08  4.348530351e-01  4.655305872e-01 
 7.190000000e-08  3.263082822e-01  3.717068381e-01 
 1.900000000e-09  4.392214682e-01  3.882537583e-01 
 3.900000000e-09  4.999899236e-01  4.908441837e-01 
 5.900000000e-09  4.363513152e-01  4.748008419e-01 
 7.900000000e-09  2.878947419e-01  3.499487939e-01 
 9.900000000e-09  1.469683936e-01  1.939817370e-01 
 1.190000000e-08  1.012361829e-01  1.040429791e-01 
 1.390000000e-08  1.791484922e-01  1.360452188e-01 
 1.590000000e-08  3.322401458e-01  2.699764165e-01 
 1.790000000e-08  4.652756571e-01  4.225439697e-01 
 1.990000000e-08  4.954974329e-01  4.989658060e-01 
 2.190000000e-08  4.041074364e-01  4.516590403e-01 
 2.390000000e-08  2.479570488e-01  3.099217508e-01 
 2.590000000e-08  1.241800644e-01  1.620043680e-01 
 2.790000000e-08  1.097735525e-01  1.000156622e-01 
 2.990000000e-08  2.137011533e-01  1.624447331e-01 
 3.190000000e-08  3.713136820e-01  3.103688823e-01 
 3.390000000e-08  4.845634068e-01  4.518338057e-01 
 3.590000000e-08  4.830011965e-01  4.989454857e-01 
 3.790000000e-08  3.676014002e-01  4.223005164e-01 
 3.990000000e-08  2.101499759e-01  2.694880362e-01 
 4.190000000e-08  1.085901463e-01  1.356834537e-01 
 4.390000000e-08  1.260985711e-01  1.041766488e-01 
 4.590000000e-08  2.517869804e-01  1.944699245e-01 
 4.790000000e-08  4.074676489e-01  3.503360291e-01 
 4.990000000e-08  4.962949189e-01  4.749155444e-01 
 5.190000000e-08  4.630132498e-01  4.907801911e-01 
 5.390000000e-08  3.283279297e-01  3.879276087e-01 
 5.590000000e-08  1.760214864e-01  2.303057673e-01 
 5.790000000e-08  1.008361699e-01  1.160961583e-01 
 5.990000000e-08  1.495436526e-01  1.163536053e-01 
 6.190000000e-08  2.918466442e-01  2.308095507e-01 
 6.390000000e-08  4.392215133e-01  3.882440397e-01 
 6.590000000e-08  4.999897754e-01  4.908441127e-01 
 6.790000000e-08  4.363513133e-01  4.748008202e-01 
 6.990000000e-08  2.878947258e-01  3.499488974e-01 
 7.190000000e-08  1.469683721e-01  1.939819232e-01 
 1.900000000e-09  4.641193617e-01  4.081235460e-01 
 3.900000000e-09  4.838138150e-01  4.999535006e-01 
 5.900000000e-09  3.303446826e-01  4.034608237e-01 
 7.900000000e-09  1.482891631e-01  2.093719634e-01 
 9.900000000e-09  1.091538975e-01  1.007736604e-01 
 1.190000000e-08  2.498105972e-01  1.799136516e-01 
 1.390000000e-08  4.377507824e-01  3.720636436e-01 
 1.590000000e-08  4.959170278e-01  4.963982963e-01 
 1.790000000e-08  3.695164650e-01  4.358077360e-01 
 1.990000000e-08  1.776280711e-01  2.471368534e-01 
 2.190000000e-08  1.010199380e-01  1.083362943e-01 
 2.390000000e-08  2.118661335e-01  1.501928863e-01 
 2.590000000e-08  4.057424756e-01  3.330678266e-01 
 2.790000000e-08  4.999993340e-01  4.848088722e-01 
 2.990000000e-08  4.058424156e-01  4.625853610e-01 
 3.190000000e-08  2.119764962e-01  2.870707051e-01 
 3.390000000e-08  1.010325917e-01  1.237511112e-01 
 3.590000000e-08  1.775302300e-01  1.265986733e-01 
 3.790000000e-08  3.694052038e-01  2.927185612e-01 
 3.990000000e-08  4.958941797e-01  4.656623581e-01 
 4.190000000e-08  4.378356349e-01  4.826980879e-01 
 4.390000000e-08  2.499285188e-01  3.275350978e-01 
 4.590000000e-08  1.091913137e-01  1.463889182e-01 
 4.790000000e-08  1.482082406e-01  1.100983834e-01 
 4.990000000e-08  3.302263403e-01  2.526643610e-01 
 5.190000000e-08  4.837681051e-01  4.397436448e-01 
 5.390000000e-08  4.641853633e-01  4.953250598e-01 
 5.590000000e-08  2.899304916e-01  3.668697575e-01 
 5.790000000e-08  1.251615402e-01  1.753240868e-01 
 5.990000000e-08  1.251005426e-01  1.013701421e-01 
 6.190000000e-08  2.898098857e-01  2.145432473e-01 
 6.390000000e-08  4.641189958e-01  4.081128555e-01 
 6.590000000e-08  4.838142923e-01  4.999534859e-01 
 6.790000000e-08  3.303446856e-01  4.034612934e-01 
 6.990000000e-08  1.482891689e-01  2.093716772e-01 
 7.190000000e-08  1.091538486e-01  1.007737595e-01 
 1.900000000e-09  4.829539933e-01  4.265781792e-01 
 3.900000000e-09  4.393052653e-01  4.891592511e-01 
 5.900000000e-09  2.138119379e-01  3.047584710e-01 
 7.900000000e-09  1.008250786e-01  1.141263557e-01 
 9.900000000e-09  2.478395862e-01  1.662950016e-01 
 1.190000000e-08  4.629457982e-01  3.928451807e-01 
 1.390000000e-08  4.653405807e-01  4.983363251e-01 
 1.590000000e-08  2.519051799e-01  3.449354394e-01 
 1.790000000e-08  1.012506965e-01  1.327841167e-01 
 1.990000000e-08  2.100405599e-01  1.391091662e-01 
 2.190000000e-08  4.362652752e-01  3.553279303e-01 
 2.390000000e-08  4.846077766e-01  4.993939602e-01 
 2.590000000e-08  2.919672684e-01  3.832680804e-01 
 2.790000000e-08  1.098129414e-01  1.582974144e-01 
 2.990000000e-08  1.759244124e-01  1.185033496e-01 
 3.190000000e-08  4.040068344e-01  3.155483501e-01 
 3.390000000e-08  4.963162631e-01  4.922938164e-01 
 3.590000000e-08  3.323581117e-01  4.181823657e-01 
 3.790000000e-08  1.261612076e-01  1.896220132e-01 
 3.990000000e-08  1.468882107e-01  1.053234067e-01 
 4.190000000e-08  3.674896086e-01  2.751308410e-01 
 4.390000000e-08  4.999885582e-01  4.773304556e-01 
 4.590000000e-08  3.714242989e-01  4.482484726e-01 
 4.790000000e-08  1.496257248e-01  2.254749016e-01 
 4.990000000e-08  1.241208936e-01  1.001119908e-01 
 5.190000000e-08  3.282093476e-01  2.357265585e-01 
 5.390000000e-08  4.954723792e-01  4.551186075e-01 
 5.590000000e-08  4.075664901e-01  4.722335151e-01 
 5.790000000e-08  1.792475821e-01  2.643858816e-01 
 5.990000000e-08  1.085542127e-01  1.030858615e-01 
 6.190000000e-08  2.877741869e-01  1.989451845e-01 
 6.390000000e-08  4.829539370e-01  4.265678434e-01 
 6.590000000e-08  4.393050140e-01  4.891592829e-01 
 6.790000000e-08  2.138122595e-01  3.047585011e-01 
 6.990000000e-08  1.008251662e-01  1.141262510e-01 
 7.190000000e-08  2.478394862e-01  1.662950630e-01 
 1.900000000e-09  4.950306449e-01  4.433781152e-01 
 3.900000000e-09  3.733246383e-01  4.595222531e-01 
 5.900000000e-09  1.271788588e-01  2.047870314e-01 
 7.900000000e-09  1.743312408e-01  1.118227055e-01 
 9.900000000e-09  4.347665458e-01  3.381675380e-01 
 1.190000000e-08  4.664796028e-01  4.997920239e-01 
 1.390000000e-08  2.156565640e-01  3.224111238e-01 
 1.590000000e-08  1.079742879e-01  1.069350641e-01 
 1.790000000e-08  3.261894561e-01  2.192927961e-01 
 1.990000000e-08  4.999563368e-01  4.684695259e-01 
 2.190000000e-08  3.343683094e-01  4.319746726e-01 
 2.390000000e-08  1.104540526e-01  1.713163898e-01 
 2.590000000e-08  2.082241978e-01  1.292797899e-01 
 2.790000000e-08  4.617545512e-01  3.768595307e-01 
 2.990000000e-08  4.407605804e-01  4.941349338e-01 
 3.190000000e-08  1.808790632e-01  2.819174821e-01 
 3.390000000e-08  1.231587893e-01  1.004130567e-01 
 3.590000000e-08  3.655667325e-01  2.577417324e-01 
 3.790000000e-08  4.966956732e-01  4.866868688e-01 
 3.990000000e-08  2.940048798e-01  3.990119498e-01 
 4.190000000e-08  1.014889694e-01  1.431255741e-01 
 4.390000000e-08  2.458738321e-01  1.537193852e-01 
 4.590000000e-08  4.821208802e-01  4.124102897e-01 
 4.790000000e-08  4.092792575e-01  4.805275553e-01 
 4.990000000e-08  1.509785184e-01  2.421651441e-01 
 5.190000000e-08  1.455843886e-01  1.020661030e-01 
 5.390000000e-08  4.022599317e-01  2.979136782e-01 
 5.590000000e-08  4.853818763e-01  4.972731926e-01 
 5.790000000e-08  2.538868205e-01  3.619842990e-01 
 5.990000000e-08  1.006510150e-01  1.213686888e-01 
 6.190000000e-08  2.857396671e-01  1.841394469e-01 
 6.390000000e-08  4.950314678e-01  4.433684524e-01 
 6.590000000e-08  3.733246417e-01  4.595220234e-01 
 6.790000000e-08  1.271789370e-01  2.047870551e-01 
 6.990000000e-08  1.743313754e-01  1.118226890e-01 
 7.190000000e-08  4.347664104e-01  3.381673882e-01 
 1.900000000e-09  4.999033235e-01  4.583053160e-01 
 3.900000000e-09  2.960430811e-01  4.139765722e-01 
 5.900000000e-09  1.004975221e-01  1.300081105e-01 
 7.900000000e-09  3.241668887e-01  2.034908767e-01 
 9.900000000e-09  4.970535500e-01  4.796232577e-01 
 1.190000000e-08  2.558734244e-01  3.785456332e-01 
 1.390000000e-08  1.074146324e-01  1.122926025e-01 
 1.590000000e-08  3.636372660e-01  2.406856974e-01 
 1.790000000e-08  4.861364676e-01  4.936102338e-01 
 1.990000000e-08  2.175101282e-01  3.398881651e-01 
 2.190000000e-08  1.222161206e-01  1.022718553e-01 
 2.390000000e-08  4.005024839e-01  2.802997753e-01 
 2.590000000e-08  4.675993607e-01  4.996825196e-01 
 2.790000000e-08  1.825235872e-01  2.995913462e-01 
 2.990000000e-08  1.442970097e-01  1.003525210e-01 
 3.190000000e-08  4.332523670e-01  3.207150886e-01 
 3.390000000e-08  4.422006823e-01  4.975868017e-01 
 3.590000000e-08  1.523469554e-01  2.593103286e-01 
 3.790000000e-08  1.727519176e-01  1.066090548e-01 
 3.990000000e-08  4.605469499e-01  3.602806105e-01 
 4.190000000e-08  4.109807394e-01  4.874026926e-01 
 4.390000000e-08  1.282141904e-01  2.206995831e-01 
 4.590000000e-08  2.064169954e-01  1.207812841e-01 
 4.790000000e-08  4.812695249e-01  3.973818654e-01 
 4.990000000e-08  3.752174420e-01  4.695410217e-01 
 5.190000000e-08  1.111148428e-01  1.853447192e-01 
 5.390000000e-08  2.439138274e-01  1.422849201e-01 
 5.590000000e-08  4.945689952e-01  4.305046783e-01 
 5.790000000e-08  3.363747876e-01  4.447286383e-01 
 5.990000000e-08  1.017480694e-01  1.546953578e-01 
 6.190000000e-08  2.837067476e-01  1.702365569e-01 
 6.390000000e-08  4.999042206e-01  4.582972635e-01 
 6.590000000e-08  2.960430822e-01  4.139767897e-01 
 6.790000000e-08  1.004970088e-01  1.300080732e-01 
 6.990000000e-08  3.241669011e-01  2.034909750e-01 
 7.190000000e-08  4.970538190e-01  4.796232866e-01 
 1.900000000e-09  4.973917515e-01  4.711670453e-01 
 3.900000000e-09  2.193720116e-01  3.570504588e-01 
 5.900000000e-09  1.430245441e-01  1.001968538e-01 
 7.900000000e-09  4.593228085e-01  3.432338475e-01 
 9.900000000e-09  3.771024916e-01  4.782264620e-01 
 1.190000000e-08  1.020276719e-01  1.674034486e-01 
 1.390000000e-08  3.221415299e-01  1.884428783e-01 
 1.590000000e-08  4.868725378e-01  4.884353286e-01 
 1.790000000e-08  1.841797400e-01  3.172682514e-01 
 1.990000000e-08  1.711858843e-01  1.029027247e-01 
 2.190000000e-08  4.803984429e-01  3.815997287e-01 
 2.390000000e-08  3.383774662e-01  4.563414896e-01 
 2.590000000e-08  1.003647009e-01  1.399776143e-01 
 2.790000000e-08  3.617010540e-01  2.240948995e-01 
 2.990000000e-08  4.687033686e-01  4.980106794e-01 
 3.190000000e-08  1.537301472e-01  2.767750790e-01 
 3.390000000e-08  2.046201614e-01  1.136801195e-01 
 3.590000000e-08  4.940863612e-01  4.166281822e-01 
 3.790000000e-08  2.980816969e-01  4.280428934e-01 
 3.990000000e-08  1.068747877e-01  1.191172971e-01 
 4.190000000e-08  3.987343352e-01  2.628439412e-01 
 4.390000000e-08  4.436278250e-01  4.994897863e-01 
 4.590000000e-08  1.292680871e-01  2.372348538e-01 
 4.790000000e-08  2.419597741e-01  1.320801372e-01 
 4.990000000e-08  4.998295696e-01  4.468918806e-01 
 5.190000000e-08  2.578644345e-01  3.944876012e-01 
 5.390000000e-08  1.212914407e-01  1.056745988e-01 
 5.590000000e-08  4.317251242e-01  3.031059767e-01 
 5.790000000e-08  4.126704999e-01  4.928061723e-01 
 5.990000000e-08  1.117951288e-01  2.002718057e-01 
 6.190000000e-08  2.816755297e-01  1.573466278e-01 
 6.390000000e-08  4.973922322e-01  4.711600772e-01 
 6.590000000e-08  2.193719631e-01  3.570504623e-01 
 6.790000000e-08  1.430253554e-01  1.001969177e-01 
 6.990000000e-08  4.593237469e-01  3.432372673e-01 
 7.190000000e-08  3.771023527e-01  4.782265446e-01 
 1.900000000e-09  4.875886026e-01  4.817961918e-01 
 3.900000000e-09  1.551279779e-01  2.944209601e-01 
 5.900000000e-09  2.400116337e-01  1.231847784e-01 
 7.900000000e-09  4.977088960e-01  4.613644327e-01 
 9.900000000e-09  1.858492353e-01  3.348073303e-01 
 1.190000000e-08  2.028331134e-01  1.080323330e-01 
 1.390000000e-08  4.997353493e-01  4.343486940e-01 
 1.590000000e-08  2.212423820e-01  3.737615972e-01 
 1.790000000e-08  1.696328934e-01  1.007363999e-01 
 1.990000000e-08  4.935843777e-01  4.018472526e-01 
 2.190000000e-08  2.598598145e-01  4.096836886e-01 
 2.390000000e-08  1.417703057e-01  1.016012303e-01 
 2.590000000e-08  4.795075159e-01  3.651865070e-01 
 2.790000000e-08  3.001204766e-01  4.410999035e-01 
 2.990000000e-08  1.203853106e-01  1.105958768e-01 
 3.190000000e-08  4.580823858e-01  3.258616102e-01 
 3.390000000e-08  3.403761788e-01  4.667243113e-01 
 3.590000000e-08  1.063535244e-01  1.273564630e-01 
 3.790000000e-08  4.301840108e-01  2.854765829e-01 
 3.990000000e-08  3.789796366e-01  4.855110751e-01 
 4.190000000e-08  1.002520912e-01  1.512001526e-01 
 4.390000000e-08  3.969563505e-01  2.456802346e-01 
 4.590000000e-08  4.143487211e-01  4.966968433e-01 
 4.790000000e-08  1.023268323e-01  1.811500546e-01 
 4.990000000e-08  3.597589732e-01  2.080978045e-01 
 5.190000000e-08  4.450381114e-01  4.998307349e-01 
 5.390000000e-08  1.124954359e-01  2.159806154e-01 
 5.590000000e-08  3.201142890e-01  1.742657210e-01 
 5.790000000e-08  4.697884382e-01  4.947914068e-01 
 5.990000000e-08  1.303385459e-01  2.542616534e-01 
 6.190000000e-08  2.796460120e-01  1.455691528e-01 
 6.390000000e-08  4.875885766e-01  4.817903554e-01 
 6.590000000e-08  1.551278111e-01  2.944208107e-01 
 6.790000000e-08  2.400116409e-01  1.231847833e-01 
 6.990000000e-08  4.977091622e-01  4.613644349e-01 
 7.190000000e-08  1.858491065e-01  3.348074496e-01 
 1.900000000e-09  4.708571570e-01  4.900554518e-01 
 3.900000000e-09  1.132145913e-01  2.323468115e-01 
 5.900000000e-09  3.578095058e-01  1.928189384e-01 
 7.900000000e-09  4.160150010e-01  4.990463387e-01 
 9.900000000e-09  1.001617775e-01  1.635859949e-01 
 1.190000000e-08  4.286292670e-01  2.679641592e-01 
 1.390000000e-08  3.423706120e-01  4.757956372e-01 
 1.590000000e-08  1.194986507e-01  1.169974850e-01 
 1.790000000e-08  4.785988875e-01  3.482698849e-01 
 1.990000000e-08  2.618592774e-01  4.240140319e-01 
 2.190000000e-08  1.680937278e-01  1.001248347e-01 
 2.390000000e-08  4.996216574e-01  4.207604341e-01 
 2.590000000e-08  1.875295932e-01  3.520692716e-01 
 2.790000000e-08  2.380690222e-01  1.156690162e-01 
 2.990000000e-08  4.882854194e-01  4.737298419e-01 
 3.190000000e-08  1.314285914e-01  2.716451178e-01 
 3.390000000e-08  3.180844585e-01  1.610699889e-01 
 3.590000000e-08  4.464338908e-01  4.986089336e-01 
 3.790000000e-08  1.026475622e-01  1.958281202e-01 
 3.990000000e-08  3.951675914e-01  2.289431079e-01 
 4.190000000e-08  3.808478276e-01  4.913392688e-01 
 4.390000000e-08  1.058558280e-01  1.369460129e-01 
 4.590000000e-08  4.568260403e-01  3.082885108e-01 
