 time             v(vi)            v(vo)           
 1.900000000e-09  6.574037456e-01  6.332924359e-01 
 3.900000000e-09  7.155024449e-01  6.925450853e-01 
 5.900000000e-09  7.688724525e-01  7.480545132e-01 
 7.900000000e-09  8.153287818e-01  7.975134465e-01 
 9.900000000e-09  8.529695337e-01  8.389001998e-01 
 1.190000000e-08  8.802536227e-01  8.705212785e-01 
 1.390000000e-08  8.960641453e-01  8.910802028e-01 
 1.590000000e-08  8.997536918e-01  8.997309155e-01 
 1.790000000e-08  8.911713345e-01  8.961131933e-01 
 1.990000000e-08  8.706683711e-01  8.803683202e-01 
 2.190000000e-08  8.390842593e-01  8.531352824e-01 
 2.390000000e-08  7.977119868e-01  8.155251543e-01 
 2.590000000e-08  7.482453957e-01  7.690766298e-01 
 2.790000000e-08  6.927096356e-01  7.156929685e-01 
 2.990000000e-08  6.333783437e-01  6.575635548e-01 
 3.190000000e-08  5.726805413e-01  5.970733852e-01 
 3.390000000e-08  5.131011929e-01  5.367046535e-01 
 3.590000000e-08  4.570794994e-01  4.789338728e-01 
 3.790000000e-08  4.069089421e-01  4.261298632e-01 
 3.990000000e-08  3.646435801e-01  3.804563425e-01 
 4.190000000e-08  3.320137002e-01  3.437834108e-01 
 4.390000000e-08  3.103551914e-01  3.176105982e-01 
 4.590000000e-08  3.005547301e-01  3.030066438e-01 
 4.790000000e-08  3.030136585e-01  3.005652597e-01 
 4.990000000e-08  3.176312180e-01  3.103821606e-01 
 5.190000000e-08  3.438089912e-01  3.320509647e-01 
 5.390000000e-08  3.804752732e-01  3.646811359e-01 
 5.590000000e-08  4.261289438e-01  4.069341437e-01 
 5.790000000e-08  4.789009448e-01  4.570792599e-01 
 5.990000000e-08  5.366307491e-01  5.130643569e-01 
 6.190000000e-08  5.969549174e-01  5.726000651e-01 
 6.390000000e-08  6.574037448e-01  6.332529280e-01 
 6.590000000e-08  7.155024517e-01  6.925450777e-01 
 6.790000000e-08  7.688724516e-01  7.480544974e-01 
 6.990000000e-08  8.153287808e-01  7.975134496e-01 
 7.190000000e-08  8.529695405e-01  8.389001964e-01 
 1.900000000e-09  7.126862627e-01  6.661392991e-01 
 3.900000000e-09  8.131975634e-01  7.759563837e-01 
 5.900000000e-09  8.791526708e-01  8.574243118e-01 
 7.900000000e-09  8.998615264e-01  8.972770006e-01 
 9.900000000e-09  8.719674566e-01  8.889943618e-01 
 1.190000000e-08  7.999918334e-01  8.338222393e-01 
 1.390000000e-08  6.956007574e-01  7.406438069e-01 
 1.590000000e-08  5.757143911e-01  6.245802763e-01 
 1.790000000e-08  4.597643479e-01  5.045209248e-01 
 1.990000000e-08  3.665440852e-01  4.000022030e-01 
 2.190000000e-08  3.111634178e-01  3.279971110e-01 
 2.390000000e-08  3.025983807e-01  3.001539241e-01 
 2.590000000e-08  3.422376438e-01  3.209258015e-01 
 2.790000000e-08  4.236563057e-01  3.868816914e-01 
 2.990000000e-08  5.336575822e-01  4.872936340e-01 
 3.190000000e-08  6.544120299e-01  6.058977980e-01 
 3.390000000e-08  7.663469991e-01  7.235302307e-01 
 3.590000000e-08  8.513196869e-01  8.212036991e-01 
 3.790000000e-08  8.955571783e-01  8.831348686e-01 
 3.990000000e-08  8.918895091e-01  8.992615525e-01 
 4.190000000e-08  8.409110877e-01  8.668828974e-01 
 4.390000000e-08  7.508849113e-01  7.911601750e-01 
 4.590000000e-08  6.364027534e-01  6.843454015e-01 
 4.790000000e-08  5.160203062e-01  5.638055904e-01 
 4.990000000e-08  4.092496200e-01  4.491623089e-01 
 5.190000000e-08  3.333964394e-01  3.590554850e-01 
 5.390000000e-08  3.007553263e-01  3.080940103e-01 
 5.590000000e-08  3.166172490e-01  3.044933112e-01 
 5.790000000e-08  3.784110797e-01  3.487707350e-01 
 5.990000000e-08  4.761211386e-01  4.336949478e-01 
 6.190000000e-08  5.939101509e-01  5.454865859e-01 
 6.390000000e-08  7.126862083e-01  6.660632832e-01 
 6.590000000e-08  8.131974957e-01  7.759563731e-01 
 6.790000000e-08  8.791527404e-01  8.574242157e-01 
 6.990000000e-08  8.998615687e-01  8.972770307e-01 
 7.190000000e-08  8.719674824e-01  8.889943935e-01 
 1.900000000e-09  7.638044801e-01  6.981321485e-01 
 3.900000000e-09  8.780229258e-01  8.421658905e-01 
 5.900000000e-09  8.925776759e-01  8.998423135e-01 
 7.900000000e-09  8.022510049e-01  8.501267685e-01 
 9.900000000e-09  6.394233742e-01  7.104574030e-01 
 1.190000000e-08  4.624636385e-01  5.309630023e-01 
 1.390000000e-08  3.348066630e-01  3.763601844e-01 
 1.590000000e-08  3.022138061e-01  3.022310409e-01 
 1.790000000e-08  3.763697575e-01  3.349530577e-01 
 1.990000000e-08  5.306912674e-01  4.625017869e-01 
 2.190000000e-08  7.098584069e-01  6.390881507e-01 
 2.390000000e-08  8.496439580e-01  8.016735972e-01 
 2.590000000e-08  8.999385603e-01  8.922838079e-01 
 2.790000000e-08  8.427130696e-01  8.783425445e-01 
 2.990000000e-08  6.984820130e-01  7.644310994e-01 
 3.190000000e-08  5.189480910e-01  5.912673859e-01 
 3.390000000e-08  3.684687886e-01  4.212544340e-01 
 3.590000000e-08  3.009869872e-01  3.156116645e-01 
 3.790000000e-08  3.406928210e-01  3.121170764e-01 
 3.990000000e-08  4.733541496e-01  4.117223159e-01 
 4.190000000e-08  6.514146482e-01  5.785514068e-01 
 4.390000000e-08  8.110443057e-01  7.529653158e-01 
 4.590000000e-08  8.950199819e-01  8.727880662e-01 
 4.790000000e-08  8.732384213e-01  8.951374969e-01 
 4.990000000e-08  7.535089117e-01  8.116327036e-01 
 5.190000000e-08  5.787507572e-01  6.519323320e-01 
 5.390000000e-08  4.116097631e-01  4.735038248e-01 
 5.590000000e-08  3.120012568e-01  3.406602624e-01 
 5.790000000e-08  3.156324090e-01  3.010545307e-01 
 5.990000000e-08  4.212017556e-01  3.686162748e-01 
 6.190000000e-08  5.908660108e-01  5.188787926e-01 
 6.390000000e-08  7.638044166e-01  6.980252185e-01 
 6.590000000e-08  8.780229012e-01  8.421659682e-01 
 6.790000000e-08  8.925774976e-01  8.998422908e-01 
 6.990000000e-08  8.022510378e-01  8.501267263e-01 
 7.190000000e-08  6.394233752e-01  7.104575382e-01 
 1.900000000e-09  8.088693618e-01  7.288771704e-01 
 3.900000000e-09  8.999841550e-01  8.848094087e-01 
 5.900000000e-09  8.044892439e-01  8.642831537e-01 
 7.900000000e-09  5.817892869e-01  6.788870118e-01 
 9.900000000e-09  3.704175632e-01  4.440462057e-01 
 1.190000000e-08  3.018602487e-01  3.067855213e-01 
 1.390000000e-08  4.187659964e-01  3.522807917e-01 
 1.590000000e-08  6.484120638e-01  5.514353272e-01 
 1.790000000e-08  8.479422533e-01  7.804915962e-01 
 1.990000000e-08  8.932356465e-01  8.978591514e-01 
 2.190000000e-08  7.561169387e-01  8.302989507e-01 
 2.390000000e-08  5.218841363e-01  6.188534602e-01 
 2.590000000e-08  3.362439216e-01  3.955655589e-01 
 2.790000000e-08  3.146770866e-01  3.000958953e-01 
 2.990000000e-08  4.706001461e-01  3.913321476e-01 
 3.190000000e-08  7.070192378e-01  6.118442420e-01 
 3.390000000e-08  8.768644042e-01  8.248952739e-01 
 3.590000000e-08  8.744813706e-01  8.987451591e-01 
 3.790000000e-08  7.013530737e-01  7.868323661e-01 
 3.990000000e-08  4.651771196e-01  5.580397045e-01 
 4.190000000e-08  3.128693460e-01  3.555063829e-01 
 4.390000000e-08  3.391751518e-01  3.056948896e-01 
 4.590000000e-08  5.277321589e-01  4.388839931e-01 
 4.790000000e-08  7.612449388e-01  6.717585178e-01 
 4.990000000e-08  8.944517368e-01  8.601486325e-01 
 5.190000000e-08  8.444899775e-01  8.874068846e-01 
 5.390000000e-08  6.424399400e-01  7.356605213e-01 
 5.590000000e-08  4.139894822e-01  4.989579793e-01 
 5.790000000e-08  3.012494577e-01  3.255065138e-01 
 5.990000000e-08  3.743511216e-01  3.233358955e-01 
 6.190000000e-08  5.878228129e-01  4.929881762e-01 
 6.390000000e-08  8.088693360e-01  7.287454631e-01 
 6.590000000e-08  8.999841698e-01  8.848094920e-01 
 6.790000000e-08  8.044895200e-01  8.642831402e-01 
 6.990000000e-08  5.817892961e-01  6.788870273e-01 
 7.190000000e-08  3.704175682e-01  4.440461899e-01 
 1.900000000e-09  8.462151359e-01  7.579976580e-01 
 3.900000000e-09  8.756961870e-01  8.997939011e-01 
 5.900000000e-09  6.454520641e-01  7.597199120e-01 
 7.900000000e-09  3.723897640e-01  4.681943574e-01 
 9.900000000e-09  3.137508083e-01  3.016306822e-01 
 1.190000000e-08  5.247805039e-01  4.166237756e-01 
 1.390000000e-08  8.066724370e-01  7.035057055e-01 
 1.590000000e-08  8.938635641e-01  8.933436964e-01 
 1.790000000e-08  7.042137343e-01  8.076360619e-01 
 1.990000000e-08  4.163886295e-01  5.253131246e-01 
 2.190000000e-08  3.015371582e-01  3.137881739e-01 
 2.390000000e-08  4.678595275e-01  3.726835803e-01 
 2.590000000e-08  7.586686343e-01  6.449499087e-01 
 2.790000000e-08  8.999990872e-01  8.749365289e-01 
 2.990000000e-08  7.587091204e-01  8.469829209e-01 
 3.190000000e-08  4.679045253e-01  5.855188603e-01 
 3.390000000e-08  3.015427614e-01  3.377075715e-01 
 3.590000000e-08  4.163483309e-01  3.380023097e-01 
 3.790000000e-08  7.041689482e-01  5.845531623e-01 
 3.990000000e-08  8.938536471e-01  8.453418360e-01 
 4.190000000e-08  8.067064807e-01  8.761602617e-01 
 4.390000000e-08  5.248284096e-01  6.463199260e-01 
 4.590000000e-08  3.137661822e-01  3.724237598e-01 
 4.790000000e-08  3.723566260e-01  3.140123162e-01 
 4.990000000e-08  6.454043060e-01  5.247660558e-01 
 5.190000000e-08  8.756778683e-01  8.057748435e-01 
 5.390000000e-08  8.462421861e-01  8.939973169e-01 
 5.590000000e-08  5.848296731e-01  7.051986314e-01 
 5.790000000e-08  3.377085090e-01  4.165220186e-01 
 5.990000000e-08  3.376843217e-01  3.017136758e-01 
 6.190000000e-08  5.847808559e-01  4.680183863e-01 
 6.390000000e-08  8.462155646e-01  7.578480356e-01 
 6.590000000e-08  8.756963686e-01  8.997939322e-01 
 6.790000000e-08  6.454520681e-01  7.597199483e-01 
 6.990000000e-08  3.723892520e-01  4.681943310e-01 
 7.190000000e-08  3.137511564e-01  3.016306556e-01 
 1.900000000e-09  8.744620379e-01  7.851391923e-01 
 3.900000000e-09  8.089021774e-01  8.856542855e-01 
 5.900000000e-09  4.706456809e-01  6.131581026e-01 
 7.900000000e-09  3.012445134e-01  3.231913811e-01 
 9.900000000e-09  5.218366262e-01  3.958964149e-01 
 1.190000000e-08  8.444627249e-01  7.339391859e-01 
 1.390000000e-08  8.479682885e-01  8.980642980e-01 
 1.590000000e-08  5.277802302e-01  6.734175155e-01 
 1.790000000e-08  3.018669144e-01  3.521247170e-01 
 1.990000000e-08  4.651326459e-01  3.559239014e-01 
 2.190000000e-08  8.044546729e-01  6.774576359e-01 
 2.390000000e-08  8.768817986e-01  8.982891255e-01 
 2.590000000e-08  5.878716631e-01  7.306232105e-01 
 2.790000000e-08  3.146939328e-01  3.912818712e-01 
 2.990000000e-08  4.139502700e-01  3.258960112e-01 
 3.190000000e-08  7.560763782e-01  6.178177571e-01 
 3.390000000e-08  8.944604847e-01  8.863528869e-01 
 3.590000000e-08  6.484595370e-01  7.824095133e-01 
 3.790000000e-08  3.392010781e-01  4.390618544e-01 
 3.990000000e-08  3.703849116e-01  3.070599358e-01 
 4.190000000e-08  7.013078408e-01  5.574337655e-01 
 4.390000000e-08  8.999833901e-01  8.627679084e-01 
 4.590000000e-08  7.070635309e-01  8.266466018e-01 
 4.790000000e-08  3.743849964e-01  4.934990516e-01 
 4.990000000e-08  3.362198327e-01  3.002108764e-01 
 5.190000000e-08  6.423920417e-01  4.987543971e-01 
 5.390000000e-08  8.932251573e-01  8.285101852e-01 
 5.590000000e-08  7.612849348e-01  8.615301761e-01 
 5.790000000e-08  4.188067485e-01  5.523441333e-01 
 5.990000000e-08  3.128540201e-01  3.056540788e-01 
 6.190000000e-08  5.817404502e-01  4.441660472e-01 
 6.390000000e-08  8.744618696e-01  7.849784672e-01 
 6.590000000e-08  8.089022818e-01  8.856542550e-01 
 6.790000000e-08  4.706456881e-01  6.131581089e-01 
 6.990000000e-08  3.012447228e-01  3.231918147e-01 
 7.190000000e-08  5.218364135e-01  3.958964445e-01 
 1.900000000e-09  8.925663349e-01  8.099728617e-01 
 3.900000000e-09  7.099021773e-01  8.436897240e-01 
 5.900000000e-09  3.407202938e-01  4.629996546e-01 
 7.900000000e-09  4.115704485e-01  3.160621616e-01 
 9.900000000e-09  8.022153475e-01  6.508144894e-01 
 1.190000000e-08  8.496686757e-01  8.995862180e-01 
 1.390000000e-08  4.733997871e-01  6.407078909e-01 
 1.590000000e-08  3.119882530e-01  3.121424603e-01 
 1.790000000e-08  6.393752395e-01  4.736058497e-01 
 1.990000000e-08  8.999371274e-01  8.484235705e-01 
 2.190000000e-08  6.514619343e-01  8.035175562e-01 
 2.390000000e-08  3.156492436e-01  4.119309222e-01 
 2.590000000e-08  4.624198154e-01  3.411884109e-01 
 2.790000000e-08  8.426844039e-01  7.089663047e-01 
 2.990000000e-08  8.110766138e-01  8.926896911e-01 
 3.190000000e-08  4.212430150e-01  5.798135018e-01 
 3.390000000e-08  3.347831146e-01  3.012062516e-01 
 3.590000000e-08  6.984363068e-01  5.307009989e-01 
 3.790000000e-08  8.950265348e-01  8.769649939e-01 
 3.990000000e-08  5.909148461e-01  7.549233473e-01 
 4.190000000e-08  3.022215425e-01  3.686480868e-01 
 4.390000000e-08  5.189008005e-01  3.768666552e-01 
 4.590000000e-08  8.732186409e-01  7.626871675e-01 
 4.790000000e-08  7.638432475e-01  8.738136908e-01 
 4.990000000e-08  3.764048507e-01  5.197452344e-01 
 5.190000000e-08  3.684374321e-01  3.025406277e-01 
 5.390000000e-08  7.534680028e-01  5.905803929e-01 
 5.590000000e-08  8.780398813e-01  8.942613391e-01 
 5.790000000e-08  5.307395512e-01  6.998963355e-01 
 5.990000000e-08  3.009838593e-01  3.349277530e-01 
 6.190000000e-08  5.787020163e-01  4.216190788e-01 
 6.390000000e-08  8.925663070e-01  8.098079549e-01 
 6.590000000e-08  7.099021815e-01  8.436896512e-01 
 6.790000000e-08  3.407201345e-01  4.629996648e-01 
 6.990000000e-08  4.115707693e-01  3.160621542e-01 
 7.190000000e-08  8.022157322e-01  6.508145013e-01 
 1.900000000e-09  8.998596925e-01  8.321995990e-01 
 3.900000000e-09  5.939589967e-01  7.778729777e-01 
 5.900000000e-09  3.007540468e-01  3.489096195e-01 
 7.900000000e-09  6.363546852e-01  4.495202146e-01 
 9.900000000e-09  8.955628839e-01  8.652765064e-01 
 1.190000000e-08  5.337062512e-01  7.255102331e-01 
 1.390000000e-08  3.111505034e-01  3.210521396e-01 
 1.590000000e-08  6.955549052e-01  5.045676468e-01 
 1.790000000e-08  8.791678993e-01  8.877635234e-01 
 1.990000000e-08  4.761675524e-01  6.679154178e-01 
 2.190000000e-08  3.333744282e-01  3.047003963e-01 
 2.390000000e-08  7.508438248e-01  5.634551017e-01 
 2.590000000e-08  8.513432835e-01  8.985673163e-01 
 2.790000000e-08  4.236980825e-01  6.074744799e-01 
 2.990000000e-08  3.665138992e-01  3.004979871e-01 
 3.190000000e-08  7.999568867e-01  6.237913821e-01 
 3.390000000e-08  8.132294688e-01  8.972186232e-01 
 3.590000000e-08  3.784465681e-01  5.467026898e-01 
 3.790000000e-08  4.092109169e-01  3.085855220e-01 
 3.990000000e-08  8.408820779e-01  6.831346697e-01 
 4.190000000e-08  7.663858370e-01  8.837324865e-01 
 4.390000000e-08  3.422647746e-01  4.881324921e-01 
 4.590000000e-08  4.597203234e-01  3.285987161e-01 
 4.790000000e-08  8.719474555e-01  7.390894917e-01 
 4.990000000e-08  7.127295823e-01  8.586149066e-01 
 5.190000000e-08  3.166360802e-01  4.342018221e-01 
 5.390000000e-08  5.159732232e-01  3.596883424e-01 
 5.590000000e-08  8.918769960e-01  7.894000552e-01 
 5.790000000e-08  6.544590474e-01  8.228507037e-01 
 5.990000000e-08  3.026076095e-01  3.871474380e-01 
 6.190000000e-08  5.756657033e-01  4.005579034e-01 
 6.390000000e-08  8.998577690e-01  8.320372733e-01 
 6.590000000e-08  5.939589969e-01  7.778729491e-01 
 6.790000000e-08  3.007518071e-01  3.489095296e-01 
 6.990000000e-08  6.363546916e-01  4.495202638e-01 
 7.190000000e-08  8.955634607e-01  8.652765155e-01 
 1.900000000e-09  8.960690772e-01  8.515529433e-01 
 3.900000000e-09  4.789471987e-01  6.945290888e-01 
 5.900000000e-09  3.646125692e-01  3.009571744e-01 
 7.900000000e-09  8.390549957e-01  6.566536759e-01 
 9.900000000e-09  7.155462675e-01  8.712980463e-01 
 1.190000000e-08  3.030238286e-01  4.074723762e-01 
 1.390000000e-08  6.333298871e-01  4.266908668e-01 
 1.590000000e-08  8.802673319e-01  8.788676782e-01 
 1.790000000e-08  4.261703794e-01  6.350745704e-01 
 1.990000000e-08  4.068721238e-01  3.035337821e-01 
 2.190000000e-08  8.706456257e-01  7.143803914e-01 
 2.390000000e-08  6.574506197e-01  8.402381923e-01 
 2.590000000e-08  3.005522845e-01  3.650279101e-01 
 2.790000000e-08  6.926631855e-01  4.792420484e-01 
 2.990000000e-08  8.529933947e-01  8.950347195e-01 
 3.190000000e-08  3.805102650e-01  5.741310279e-01 
 3.390000000e-08  4.570355935e-01  3.182619316e-01 
 3.590000000e-08  8.911574834e-01  7.674597269e-01 
 3.790000000e-08  5.970037154e-01  7.992624769e-01 
 3.990000000e-08  3.103446966e-01  3.323184212e-01 
 4.190000000e-08  7.482040796e-01  5.366585009e-01 
 4.390000000e-08  8.153609458e-01  8.992190842e-01 
 4.590000000e-08  3.438383176e-01  5.142416970e-01 
 4.790000000e-08  5.130545308e-01  3.445031587e-01 
 4.990000000e-08  8.997492981e-01  8.137548903e-01 
 5.190000000e-08  5.366794074e-01  7.500220619e-01 
 5.390000000e-08  3.319913122e-01  3.106738285e-01 
 5.590000000e-08  7.976765939e-01  5.966049736e-01 
 5.790000000e-08  7.689109445e-01  8.912133622e-01 
 5.990000000e-08  3.176513701e-01  4.579068131e-01 
 6.190000000e-08  5.726319658e-01  3.811533195e-01 
 6.390000000e-08  8.960685959e-01  8.513992072e-01 
 6.590000000e-08  4.789477593e-01  6.945289806e-01 
 6.790000000e-08  3.646120863e-01  3.009571660e-01 
 6.990000000e-08  8.390537851e-01  6.566536408e-01 
 7.190000000e-08  7.155457873e-01  8.712980668e-01 
 1.900000000e-09  8.813381241e-01  8.678021133e-01 
 3.900000000e-09  3.825983719e-01  6.017813373e-01 
 5.900000000e-09  5.101445484e-01  3.314393245e-01 
 7.900000000e-09  8.965441007e-01  8.354586339e-01 
 9.900000000e-09  4.286628805e-01  6.623597398e-01 
 1.190000000e-08  4.543671069e-01  3.102685991e-01 
 1.390000000e-08  8.996105452e-01  7.937328208e-01 
 1.590000000e-08  4.817400577e-01  7.203032254e-01 
 1.790000000e-08  4.045519510e-01  3.009559916e-01 
 1.990000000e-08  8.904102821e-01  7.441692812e-01 
 2.190000000e-08  5.396589065e-01  7.732083764e-01 
 2.390000000e-08  3.627385876e-01  3.039229247e-01 
 2.590000000e-08  8.693199562e-01  6.887610593e-01 
 2.790000000e-08  6.000487523e-01  8.189025639e-01 
 2.990000000e-08  3.306378166e-01  3.190857396e-01 
 3.190000000e-08  8.372027489e-01  6.297367881e-01 
 3.390000000e-08  6.604362713e-01  8.555332806e-01 
 3.590000000e-08  3.095666551e-01  3.458549169e-01 
 3.790000000e-08  7.953755156e-01  5.694733581e-01 
 3.990000000e-08  7.183491256e-01  8.816408764e-01 
 4.190000000e-08  3.003860582e-01  3.831525791e-01 
 4.390000000e-08  7.455475716e-01  5.104057765e-01 
 4.590000000e-08  7.714171039e-01  8.962081420e-01 
 4.790000000e-08  3.034676625e-01  4.294525272e-01 
 4.990000000e-08  6.897623796e-01  4.549288189e-01 
 5.190000000e-08  8.174674080e-01  8.986918668e-01 
 5.390000000e-08  3.186939805e-01  4.828408188e-01 
 5.590000000e-08  6.303019596e-01  4.053037429e-01 
 5.790000000e-08  8.546147266e-01  8.890352760e-01 
 5.990000000e-08  3.454366756e-01  5.410953460e-01 
 6.190000000e-08  5.696010911e-01  3.635654448e-01 
 6.390000000e-08  8.813380737e-01  8.676624956e-01 
 6.590000000e-08  3.825987435e-01  6.017813135e-01 
 6.790000000e-08  5.101446296e-01  3.314393602e-01 
 6.990000000e-08  8.965440109e-01  8.354586627e-01 
 7.190000000e-08  4.286616928e-01  6.623597518e-01 
 1.900000000e-09  8.562109833e-01  8.807541972e-01 
 3.900000000e-09  3.197691391e-01  5.087838761e-01 
 5.900000000e-09  6.868521816e-01  4.318266905e-01 
 7.900000000e-09  7.739081745e-01  8.986917795e-01 
 9.900000000e-09  3.002450919e-01  4.031328210e-01 
 1.190000000e-08  7.930529308e-01  5.426163522e-01 
 1.390000000e-08  6.634158257e-01  8.686143016e-01 
 1.590000000e-08  3.293114504e-01  3.298733832e-01 
 1.790000000e-08  8.679629916e-01  6.624394981e-01 
 1.990000000e-08  5.426452847e-01  7.948633444e-01 
 2.190000000e-08  4.022510402e-01  3.008818748e-01 
 2.390000000e-08  8.994379259e-01  7.721392284e-01 
 2.590000000e-08  4.311719502e-01  6.890795288e-01 
 2.790000000e-08  5.072432491e-01  3.206094875e-01 
 2.990000000e-08  8.823799360e-01  8.542516607e-01 
 3.190000000e-08  3.470611712e-01  5.684524899e-01 
 3.390000000e-08  6.272708867e-01  3.855354531e-01 
 3.590000000e-08  8.195551996e-01  8.956587109e-01 
 3.790000000e-08  3.039465923e-01  4.528990245e-01 
 3.990000000e-08  7.428768216e-01  4.849100818e-01 
 4.190000000e-08  7.211409699e-01  8.895698556e-01 
 4.390000000e-08  3.088203912e-01  3.615535841e-01 
 4.590000000e-08  8.353252883e-01  6.026014184e-01 
