 time             v(vip)           v(vop)           v(von)          
 1.900000000e-09  6.574038941e-01  6.334575919e-01  5.665199701e-01 
 3.900000000e-09  7.155025781e-01  6.927515377e-01  5.071795319e-01 
 5.900000000e-09  7.688725769e-01  7.482595433e-01  4.516357959e-01 
 7.900000000e-09  8.153288918e-01  7.977064004e-01  4.021705080e-01 
 9.900000000e-09  8.529695806e-01  8.390661947e-01  3.608126070e-01 
 1.190000000e-08  8.802536952e-01  8.706467335e-01  3.292540335e-01 
 1.390000000e-08  8.960641531e-01  8.911536762e-01  3.087856070e-01 
 1.590000000e-08  8.997537201e-01  8.997447827e-01  3.002433129e-01 
 1.790000000e-08  8.911712906e-01  8.960667493e-01  3.039725411e-01 
 1.990000000e-08  8.706683233e-01  8.802639748e-01  3.198205034e-01 
 2.190000000e-08  8.390841593e-01  8.529826880e-01  3.471336204e-01 
 2.390000000e-08  7.977118826e-01  8.153373188e-01  3.847923113e-01 
 2.590000000e-08  7.482452706e-01  7.688659205e-01  4.312564065e-01 
 2.790000000e-08  6.927094947e-01  7.154733188e-01  4.846223173e-01 
 2.990000000e-08  6.333781903e-01  6.573499107e-01  5.427040061e-01 
 3.190000000e-08  5.726803795e-01  5.968754217e-01  6.031284975e-01 
 3.390000000e-08  5.131010340e-01  5.365292119e-01  6.634244889e-01 
 3.590000000e-08  4.570793400e-01  4.787855835e-01  7.211257649e-01 
 3.790000000e-08  4.069088233e-01  4.260104226e-01  7.738732767e-01 
 3.990000000e-08  3.646434381e-01  3.803643466e-01  8.195109044e-01 
 4.190000000e-08  3.320135930e-01  3.437172383e-01  8.561701849e-01 
 4.390000000e-08  3.103551369e-01  3.175697408e-01  8.823485524e-01 
 4.590000000e-08  3.005547550e-01  3.029894174e-01  8.969734650e-01 
 4.790000000e-08  3.030136819e-01  3.005714975e-01  8.994424378e-01 
 4.990000000e-08  3.176312809e-01  3.104103057e-01  8.896528249e-01 
 5.190000000e-08  3.438090979e-01  3.321024528e-01  8.679999948e-01 
 5.390000000e-08  3.804753998e-01  3.647582544e-01  8.353672388e-01 
 5.590000000e-08  4.261291002e-01  4.070370140e-01  7.930915436e-01 
 5.790000000e-08  4.789010982e-01  4.572067294e-01  7.429044702e-01 
 5.990000000e-08  5.366309192e-01  5.132167805e-01  6.868594985e-01 
 6.190000000e-08  5.969550769e-01  5.727780017e-01  6.272514628e-01 
 6.390000000e-08  6.574038932e-01  6.334475258e-01  5.665307918e-01 
 6.590000000e-08  7.155025791e-01  6.927505247e-01  5.071805458e-01 
 6.790000000e-08  7.688725798e-01  7.482593813e-01  4.516359580e-01 
 6.990000000e-08  8.153288963e-01  7.977051289e-01  4.021717797e-01 
 7.190000000e-08  8.529695787e-01  8.390672513e-01  3.608115509e-01 
 1.900000000e-09  7.126864762e-01  6.664701603e-01  5.334427578e-01 
 3.900000000e-09  8.131977630e-01  7.763468359e-01  4.234274534e-01 
 5.900000000e-09  8.791528190e-01  8.577111181e-01  3.420683711e-01 
 7.900000000e-09  8.998615270e-01  8.973649162e-01  3.025635598e-01 
 9.900000000e-09  8.719673417e-01  8.888404620e-01  3.112881924e-01 
 1.190000000e-08  7.999916108e-01  8.334722312e-01  3.667826428e-01 
 1.390000000e-08  6.956004879e-01  7.402012510e-01  4.600273237e-01 
 1.590000000e-08  5.757140657e-01  6.241566107e-01  5.759101521e-01 
 1.790000000e-08  4.597639721e-01  5.041870343e-01  6.956830315e-01 
 1.990000000e-08  3.665439564e-01  3.997871470e-01  7.999730594e-01 
 2.190000000e-08  3.111633112e-01  3.278902363e-01  8.719153686e-01 
 2.390000000e-08  3.025984973e-01  3.001444752e-01  8.998341853e-01 
 2.590000000e-08  3.422379269e-01  3.210076874e-01  8.791638843e-01 
 2.790000000e-08  4.236566285e-01  3.870573237e-01  8.132063803e-01 
 2.990000000e-08  5.336579350e-01  4.875673388e-01  7.126306328e-01 
 3.190000000e-08  6.544123028e-01  6.062602833e-01  5.937555734e-01 
 3.390000000e-08  7.663472691e-01  7.239322204e-01  4.758981513e-01 
 3.590000000e-08  8.513197742e-01  8.215526927e-01  3.782036365e-01 
 3.790000000e-08  8.955571961e-01  8.833323271e-01  3.165078005e-01 
 3.990000000e-08  8.918895146e-01  8.992276548e-01  3.008025273e-01 
 4.190000000e-08  8.409109146e-01  8.666206626e-01  3.335871864e-01 
 4.390000000e-08  7.508847157e-01  7.907505657e-01  4.095115783e-01 
 4.590000000e-08  6.364024338e-01  6.838999072e-01  5.162598071e-01 
 4.790000000e-08  5.160199870e-01  5.634206999e-01  6.365440342e-01 
 4.990000000e-08  4.092493070e-01  4.488864163e-01  7.509115897e-01 
 5.190000000e-08  3.333962524e-01  3.588946866e-01  8.408681568e-01 
 5.390000000e-08  3.007553852e-01  3.080375962e-01  8.918440489e-01 
 5.590000000e-08  3.166173690e-01  3.045275622e-01  8.955532823e-01 
 5.790000000e-08  3.784113308e-01  3.488968343e-01  8.513391644e-01 
 5.990000000e-08  4.761214749e-01  4.339191750e-01  7.663310899e-01 
 6.190000000e-08  5.939104688e-01  5.458085802e-01  6.543067935e-01 
 6.390000000e-08  7.126864764e-01  6.664544367e-01  5.334610316e-01 
 6.590000000e-08  8.131977071e-01  7.763469117e-01  4.234273782e-01 
 6.790000000e-08  8.791527656e-01  8.577130660e-01  3.420664267e-01 
 6.990000000e-08  8.998614784e-01  8.973639164e-01  3.025645472e-01 
 7.190000000e-08  8.719674385e-01  8.888410670e-01  3.112875836e-01 
 1.900000000e-09  7.638048626e-01  6.986302345e-01  5.011811826e-01 
 3.900000000e-09  8.780231249e-01  8.426384775e-01  3.570139686e-01 
 5.900000000e-09  8.925776171e-01  8.998815593e-01  3.000900675e-01 
 7.900000000e-09  8.022507567e-01  8.496597837e-01  3.506984138e-01 
 9.900000000e-09  6.394229324e-01  7.097726760e-01  4.905333331e-01 
 1.190000000e-08  4.624631456e-01  5.304065121e-01  6.694784621e-01 
 1.390000000e-08  3.348063782e-01  3.760703489e-01  8.235731814e-01 
 1.590000000e-08  3.022138581e-01  3.021822746e-01  8.977145437e-01 
 1.790000000e-08  3.763700541e-01  3.351101541e-01  8.652052799e-01 
 1.990000000e-08  5.306917876e-01  4.628696910e-01  7.374813921e-01 
 2.190000000e-08  7.098587363e-01  6.396402588e-01  5.603185217e-01 
 2.390000000e-08  8.496440954e-01  8.022138567e-01  3.974362654e-01 
 2.590000000e-08  8.999383757e-01  8.924931272e-01  3.073341040e-01 
 2.790000000e-08  8.427127960e-01  8.780268277e-01  3.222338008e-01 
 2.990000000e-08  6.984816889e-01  7.637745163e-01  4.366082349e-01 
 3.190000000e-08  5.189475958e-01  5.906439648e-01  6.093912574e-01 
 3.390000000e-08  3.684685565e-01  4.208749064e-01  7.787970231e-01 
 3.590000000e-08  3.009867655e-01  3.154880298e-01  8.842777133e-01 
 3.790000000e-08  3.406933990e-01  3.122071707e-01  8.879888862e-01 
 3.990000000e-08  4.733545869e-01  4.120186578e-01  7.883810364e-01 
 4.190000000e-08  6.514151274e-01  5.790517346e-01  6.210594316e-01 
 4.390000000e-08  8.110445137e-01  7.535473542e-01  4.461606958e-01 
 4.590000000e-08  8.950200518e-01  8.731464363e-01  3.265683707e-01 
 4.790000000e-08  8.732382696e-01  8.949965929e-01  3.051277382e-01 
 4.990000000e-08  7.535085261e-01  8.110485686e-01  3.893526292e-01 
 5.190000000e-08  5.787502693e-01  6.512605607e-01  5.489229797e-01 
 5.390000000e-08  4.116094611e-01  4.730323474e-01  7.267246575e-01 
 5.590000000e-08  3.120013188e-01  3.404572866e-01  8.592192415e-01 
 5.790000000e-08  3.156326983e-01  3.010765593e-01  8.989719331e-01 
 5.990000000e-08  4.212023739e-01  3.688446018e-01  8.315425808e-01 
 6.190000000e-08  5.908664862e-01  5.193161362e-01  6.809332495e-01 
 6.390000000e-08  7.638048885e-01  6.986051067e-01  5.012116861e-01 
 6.590000000e-08  8.780233180e-01  8.426374895e-01  3.570149582e-01 
 6.790000000e-08  8.925776747e-01  8.998815617e-01  3.000900654e-01 
 6.990000000e-08  8.022506767e-01  8.496562256e-01  3.507019792e-01 
 7.190000000e-08  6.394229100e-01  7.097713090e-01  4.905346963e-01 
 1.900000000e-09  8.088694984e-01  7.295312603e-01  4.701507686e-01 
 3.900000000e-09  8.999841670e-01  8.851831816e-01  3.145121995e-01 
 5.900000000e-09  8.044889787e-01  8.637510867e-01  3.366734489e-01 
 7.900000000e-09  5.817886454e-01  6.779578432e-01  5.223864007e-01 
 9.900000000e-09  3.704170231e-01  4.434623471e-01  7.561630082e-01 
 1.190000000e-08  3.018604683e-01  3.066707771e-01  8.931055099e-01 
 1.390000000e-08  4.187664695e-01  3.525380364e-01  8.479440715e-01 
 1.590000000e-08  6.484126105e-01  5.520458067e-01  6.482116361e-01 
 1.790000000e-08  8.479425756e-01  7.812274676e-01  4.183491433e-01 
 1.990000000e-08  8.932350871e-01  8.980233606e-01  3.018446784e-01 
 2.190000000e-08  7.561163615e-01  8.295859271e-01  3.709355751e-01 
 2.390000000e-08  5.218834410e-01  6.179619106e-01  5.821998782e-01 
 2.590000000e-08  3.362440255e-01  3.951086138e-01  8.044381476e-01 
 2.790000000e-08  3.146774182e-01  3.000800229e-01  8.998870712e-01 
 2.990000000e-08  4.706008724e-01  3.916781926e-01  8.088629223e-01 
 3.190000000e-08  7.070196532e-01  6.125296619e-01  5.875315595e-01 
 3.390000000e-08  8.768651195e-01  8.255601455e-01  3.739768931e-01 
 3.590000000e-08  8.744809624e-01  8.986747662e-01  3.013939870e-01 
 3.790000000e-08  7.013525086e-01  7.859876236e-01  4.145525250e-01 
 3.990000000e-08  4.651765703e-01  5.572288315e-01  6.427309833e-01 
 4.190000000e-08  3.128690959e-01  3.551709604e-01  8.443769018e-01 
 4.390000000e-08  3.391756530e-01  3.057727454e-01  8.943967739e-01 
 4.590000000e-08  5.277328438e-01  4.393217795e-01  7.611969060e-01 
 4.790000000e-08  7.612453331e-01  6.724949915e-01  5.273667022e-01 
 4.990000000e-08  8.944520372e-01  8.606931452e-01  3.388856644e-01 
 5.190000000e-08  8.444899957e-01  8.870978690e-01  3.131670707e-01 
 5.390000000e-08  6.424393276e-01  7.347445037e-01  4.657331132e-01 
 5.590000000e-08  4.139890109e-01  4.982531536e-01  7.015177046e-01 
 5.790000000e-08  3.012493718e-01  3.252870913e-01  8.743415672e-01 
 5.990000000e-08  3.743518217e-01  3.235029172e-01  8.768482137e-01 
 6.190000000e-08  5.878234480e-01  4.935151951e-01  7.069034639e-01 
 6.390000000e-08  8.088695408e-01  7.295021911e-01  4.701888044e-01 
 6.590000000e-08  8.999846932e-01  8.851855959e-01  3.145098081e-01 
 6.790000000e-08  8.044888853e-01  8.637536496e-01  3.366708743e-01 
 6.990000000e-08  5.817886292e-01  6.779587118e-01  5.223855361e-01 
 7.190000000e-08  3.704169967e-01  4.434615387e-01  7.561638134e-01 
 1.900000000e-09  8.462160589e-01  7.587953918e-01  4.407411126e-01 
 3.900000000e-09  8.756957293e-01  8.998498860e-01  3.001150467e-01 
 5.900000000e-09  6.454514152e-01  7.585980731e-01  4.420588115e-01 
 7.900000000e-09  3.723891998e-01  4.673658294e-01  7.322659701e-01 
 9.900000000e-09  3.137515742e-01  3.015514408e-01  8.982907513e-01 
 1.190000000e-08  5.247813359e-01  4.171171776e-01  7.835652269e-01 
 1.390000000e-08  8.066730520e-01  7.044182917e-01  4.953133000e-01 
 1.590000000e-08  8.938633328e-01  8.936745101e-01  3.060543505e-01 
 1.790000000e-08  7.042129694e-01  8.066473643e-01  3.940350594e-01 
 1.990000000e-08  4.163880635e-01  5.243412896e-01  6.755035349e-01 
 2.190000000e-08  3.015370902e-01  3.135767827e-01  8.860524443e-01 
 2.390000000e-08  4.678601921e-01  3.730656009e-01  8.275913242e-01 
 2.590000000e-08  7.586696100e-01  6.458187173e-01  5.541481710e-01 
 2.790000000e-08  8.999993880e-01  8.755018397e-01  3.240454715e-01 
 2.990000000e-08  7.587083067e-01  8.461970126e-01  3.544099045e-01 
 3.190000000e-08  4.679037798e-01  5.844277666e-01  6.156650628e-01 
 3.390000000e-08  3.015424400e-01  3.373536050e-01  8.621328520e-01 
 3.590000000e-08  4.163490668e-01  3.382708312e-01  8.622636347e-01 
 3.790000000e-08  7.041696250e-01  5.853498598e-01  6.148676616e-01 
 3.990000000e-08  8.938535163e-01  8.460836727e-01  3.533654572e-01 
 4.190000000e-08  8.067061989e-01  8.756300146e-01  3.248125488e-01 
 4.390000000e-08  5.248274142e-01  6.451540197e-01  5.551818602e-01 
 4.590000000e-08  3.137660596e-01  3.719179511e-01  8.275188614e-01 
 4.790000000e-08  3.723570083e-01  3.141689974e-01  8.861659386e-01 
 4.990000000e-08  6.454050833e-01  5.254665929e-01  6.749764822e-01 
 5.190000000e-08  8.756781848e-01  8.066321314e-01  3.928178437e-01 
 5.390000000e-08  8.462414693e-01  8.937591432e-01  3.064569340e-01 
 5.590000000e-08  5.848289037e-01  7.040191363e-01  4.965155443e-01 
 5.790000000e-08  3.377088604e-01  4.158528910e-01  7.836351758e-01 
 5.990000000e-08  3.376848500e-01  3.017566669e-01  8.983342546e-01 
 6.190000000e-08  5.847816747e-01  4.686153271e-01  7.319916265e-01 
 6.390000000e-08  8.462155985e-01  7.587605502e-01  4.407889623e-01 
 6.590000000e-08  8.756956938e-01  8.998498984e-01  3.001151967e-01 
 6.790000000e-08  6.454514152e-01  7.585980936e-01  4.420587909e-01 
 6.990000000e-08  3.723892948e-01  4.673658482e-01  7.322659513e-01 
 7.190000000e-08  3.137510788e-01  3.015517796e-01  8.982903996e-01 
 1.900000000e-09  8.744624528e-01  7.860527880e-01  4.133358912e-01 
 3.900000000e-09  8.089016442e-01  8.851920428e-01  3.152136891e-01 
 5.900000000e-09  4.706445669e-01  6.117732395e-01  5.885038132e-01 
 7.900000000e-09  3.012456124e-01  3.228480584e-01  8.766226807e-01 
 9.900000000e-09  5.218374628e-01  3.964204231e-01  8.044036891e-01 
 1.190000000e-08  8.444629290e-01  7.350146313e-01  4.645639514e-01 
 1.390000000e-08  8.479673054e-01  8.979523205e-01  3.021624938e-01 
 1.590000000e-08  5.277793073e-01  6.719822887e-01  5.285622264e-01 
 1.790000000e-08  3.018659625e-01  3.515982949e-01  8.477578046e-01 
 1.990000000e-08  4.651337524e-01  3.563182370e-01  8.444136567e-01 
 2.190000000e-08  8.044555273e-01  6.785032047e-01  5.213300640e-01 
 2.390000000e-08  8.768812294e-01  8.985155494e-01  3.013036819e-01 
 2.590000000e-08  5.878707142e-01  7.292197834e-01  4.715180240e-01 
 2.790000000e-08  3.146933843e-01  3.905634224e-01  8.087959387e-01 
 2.990000000e-08  4.139510022e-01  3.261596241e-01  8.743748003e-01 
 3.190000000e-08  7.560773146e-01  6.188016941e-01  5.813271100e-01 
 3.390000000e-08  8.944601876e-01  8.868805702e-01  3.126866882e-01 
 3.590000000e-08  6.484586037e-01  7.811270455e-01  4.196982690e-01 
 3.790000000e-08  3.392007681e-01  4.381436293e-01  7.613362049e-01 
 3.990000000e-08  3.703856460e-01  3.071881693e-01  8.930757679e-01 
 4.190000000e-08  7.013088969e-01  5.583217122e-01  6.420957963e-01 
 4.390000000e-08  8.999839626e-01  8.635370302e-01  3.358623647e-01 
 4.590000000e-08  7.070627610e-01  8.255719730e-01  3.752205663e-01 
 4.790000000e-08  3.743845702e-01  4.923925164e-01  7.073055075e-01 
 4.990000000e-08  3.362211263e-01  3.001937029e-01  8.997710340e-01 
 5.190000000e-08  6.423928692e-01  4.995213886e-01  7.011313950e-01 
 5.390000000e-08  8.932253309e-01  8.294499097e-01  3.698926578e-01 
 5.590000000e-08  7.612840978e-01  8.607364986e-01  3.399081580e-01 
 5.790000000e-08  4.188058234e-01  5.510795638e-01  6.488993058e-01 
 5.990000000e-08  3.128553843e-01  3.054816177e-01  8.942034078e-01 
 6.190000000e-08  5.817414202e-01  4.448167210e-01  7.559794155e-01 
 6.390000000e-08  8.744625251e-01  7.860158857e-01  4.133898592e-01 
 6.590000000e-08  8.089016611e-01  8.851915387e-01  3.152141969e-01 
 6.790000000e-08  4.706446086e-01  6.117717863e-01  5.885052633e-01 
 6.990000000e-08  3.012456158e-01  3.228422043e-01  8.766285805e-01 
 7.190000000e-08  5.218376004e-01  3.964192240e-01  8.044048864e-01 
 1.900000000e-09  8.925676581e-01  8.109761319e-01  3.882773803e-01 
 3.900000000e-09  7.099013314e-01  8.425955184e-01  3.582608504e-01 
 5.900000000e-09  3.407188823e-01  4.617917129e-01  7.377387435e-01 
 7.900000000e-09  4.115725309e-01  3.162978456e-01  8.841791517e-01 
 9.900000000e-09  8.022165895e-01  6.519856581e-01  5.480086861e-01 
 1.190000000e-08  8.496692255e-01  8.996506889e-01  3.003162815e-01 
 1.390000000e-08  4.733984427e-01  6.390338920e-01  5.614671267e-01 
 1.590000000e-08  3.119879129e-01  3.118381682e-01  8.876712821e-01 
 1.790000000e-08  6.393763194e-01  4.744340338e-01  7.264348909e-01 
 1.990000000e-08  8.999373042e-01  8.494005549e-01  3.498678417e-01 
 2.190000000e-08  6.514610442e-01  8.021309628e-01  3.988342700e-01 
 2.390000000e-08  3.156494307e-01  4.109527613e-01  7.883761980e-01 
 2.590000000e-08  4.624206194e-01  3.415816793e-01  8.591728697e-01 
 2.790000000e-08  8.426849831e-01  7.101804075e-01  4.894886755e-01 
 2.990000000e-08  8.110763112e-01  8.923552897e-01  3.079574469e-01 
 3.190000000e-08  4.212416957e-01  5.782357977e-01  6.219319563e-01 
 3.390000000e-08  3.347846579e-01  3.010989195e-01  8.987003153e-01 
 3.590000000e-08  6.984376424e-01  5.316643892e-01  6.689828145e-01 
 3.790000000e-08  8.950273873e-01  8.777071980e-01  3.216916007e-01 
 3.990000000e-08  5.909137402e-01  7.533490782e-01  4.475862048e-01 
 4.190000000e-08  3.022209513e-01  3.679039967e-01  8.313498755e-01 
 4.390000000e-08  5.189017890e-01  3.774108181e-01  8.235167401e-01 
 4.590000000e-08  8.732192518e-01  7.638936162e-01  4.355218764e-01 
 4.790000000e-08  7.638424810e-01  8.730808401e-01  3.275454926e-01 
 4.990000000e-08  3.764040278e-01  5.183291349e-01  6.814967167e-01 
 5.190000000e-08  3.684383817e-01  3.026116925e-01  8.975286481e-01 
 5.390000000e-08  7.534684849e-01  5.916595173e-01  6.086794812e-01 
 5.590000000e-08  8.780390991e-01  8.946948281e-01  3.049499843e-01 
 5.790000000e-08  5.307386087e-01  6.982167309e-01  5.025548189e-01 
 5.990000000e-08  3.009833298e-01  3.344125626e-01  8.649047879e-01 
 6.190000000e-08  5.787031505e-01  4.223100475e-01  7.786577774e-01 
 6.390000000e-08  8.925676515e-01  8.109380858e-01  3.883362594e-01 
 6.590000000e-08  7.099018924e-01  8.425962253e-01  3.582601302e-01 
 6.790000000e-08  3.407193998e-01  4.617901905e-01  7.377402279e-01 
 6.990000000e-08  4.115714713e-01  3.162974626e-01  8.841795303e-01 
 7.190000000e-08  8.022160261e-01  6.519815519e-01  5.480128281e-01 
 1.900000000e-09  8.998580323e-01  8.332541229e-01  3.658921817e-01 
 3.900000000e-09  5.939576989e-01  7.761642838e-01  4.249447100e-01 
 5.900000000e-09  3.007529899e-01  3.481769436e-01  8.510086194e-01 
 7.900000000e-09  6.363559237e-01  4.503981396e-01  7.506750399e-01 
 9.900000000e-09  8.955628951e-01  8.662399258e-01  3.330000931e-01 
 1.190000000e-08  5.337049214e-01  7.236258998e-01  4.773731801e-01 
 1.390000000e-08  3.111520510e-01  3.205782546e-01  8.787529804e-01 
 1.590000000e-08  6.955560567e-01  5.055925808e-01  6.952971962e-01 
 1.790000000e-08  8.791673462e-01  8.884228969e-01  3.110326921e-01 
 1.990000000e-08  4.761663067e-01  6.659721589e-01  5.347776063e-01 
 2.190000000e-08  3.333743332e-01  3.044648793e-01  8.951430870e-01 
 2.390000000e-08  7.508440138e-01  5.646174022e-01  6.359674932e-01 
 2.590000000e-08  8.513438973e-01  8.988460795e-01  3.009361871e-01 
 2.790000000e-08  4.236972208e-01  6.055870757e-01  5.948147928e-01 
 2.990000000e-08  3.665148575e-01  3.004818639e-01  8.994894068e-01 
 3.190000000e-08  7.999573316e-01  6.250632560e-01  5.751450502e-01 
 3.390000000e-08  8.132282473e-01  8.970634842e-01  3.031039272e-01 
 3.590000000e-08  3.784447440e-01  5.449604712e-01  6.550516258e-01 
 3.790000000e-08  4.092121976e-01  3.087708256e-01  8.915916592e-01 
 3.990000000e-08  8.408835092e-01  6.844778570e-01  5.153433668e-01 
 4.190000000e-08  7.663840959e-01  8.831245377e-01  3.174240491e-01 
 4.390000000e-08  3.422652114e-01  4.866039233e-01  7.130395753e-01 
 4.590000000e-08  4.597223014e-01  3.289724645e-01  8.717455541e-01 
 4.790000000e-08  8.719469393e-01  7.404504607e-01  4.590356290e-01 
 4.990000000e-08  7.127290221e-01  8.575718973e-01  3.432918487e-01 
 5.190000000e-08  3.166357920e-01  4.329272661e-01  7.664281567e-01 
 5.390000000e-08  5.159746300e-01  3.602367044e-01  8.407430777e-01 
 5.590000000e-08  8.918780062e-01  7.907097724e-01  4.085470003e-01 
 5.790000000e-08  6.544578273e-01  8.214285058e-01  3.796328166e-01 
 5.990000000e-08  3.026060210e-01  3.861447428e-01  8.130493933e-01 
 6.190000000e-08  5.756669669e-01  4.012755765e-01  7.998294057e-01 
 6.390000000e-08  8.998589759e-01  8.332173991e-01  3.659526663e-01 
 6.590000000e-08  5.939577155e-01  7.761646851e-01  4.249442991e-01 
 6.790000000e-08  3.007536185e-01  3.481776463e-01  8.510079143e-01 
 6.990000000e-08  6.363558331e-01  4.503975109e-01  7.506756712e-01 
 7.190000000e-08  8.955645912e-01  8.662391968e-01  3.330008181e-01 
