 time                v(vi1)              v(vo1)              v(vo2)              v(vo3)             
 0.000000000000e+00  3.000000000005e-01  8.711589908682e-04  8.904157602394e-04  2.617093480764e-03 
 2.000000000000e-09  3.236546331461e-01  3.229026327575e-01  3.230521421352e-01  3.231196090779e-01 
 4.000000000000e-09  3.469772070945e-01  3.461770165888e-01  3.463798808747e-01  3.464512211377e-01 
 6.000000000000e-09  3.696403240306e-01  3.687976385848e-01  3.690570318944e-01  3.691309092284e-01 
 8.000000000000e-09  3.913258434708e-01  3.904495546725e-01  3.907655506951e-01  3.908403807625e-01 
 1.000000000000e-08  4.117293482575e-01  4.108325119067e-01  4.112009527440e-01  4.112749509739e-01 
 1.200000000000e-08  4.305644179082e-01  4.296651719974e-01  4.300765707431e-01  4.301478157361e-01 
 1.400000000000e-08  4.475666493323e-01  4.466888429196e-01  4.471275642979e-01  4.471940742188e-01 
 1.600000000000e-08  4.624973684698e-01  4.616705648134e-01  4.621146269371e-01  4.621744451728e-01 
 1.800000000000e-08  4.751469807527e-01  4.744054538092e-01  4.748273395181e-01  4.748786248715e-01 
 2.000000000000e-08  4.853379133528e-01  4.847183378035e-01  4.850871237229e-01  4.851282396901e-01 
 2.200000000000e-08  4.929271079151e-01  4.924649111714e-01  4.927497545526e-01  4.927793518966e-01 
 2.400000000000e-08  4.978080287836e-01  4.975328217948e-01  4.977073964262e-01  4.977244833998e-01 
 2.600000000000e-08  4.999121585285e-01  4.998431583955e-01  4.998901336533e-01  4.998941288570e-01 
 2.800000000000e-08  4.992099597806e-01  4.993526126910e-01  4.992669726587e-01  4.992577366329e-01 
 3.000000000000e-08  4.957112898712e-01  4.960561518781e-01  4.958463003067e-01  4.958241434769e-01 
 3.200000000000e-08  4.894652624561e-01  4.899895567289e-01  4.896757901449e-01  4.896414564453e-01 
 3.400000000000e-08  4.805595580695e-01  4.812309476352e-01  4.808417559082e-01  4.807963832911e-01 
 3.600000000000e-08  4.691191932786e-01  4.699006364645e-01  4.694679596525e-01  4.694130203542e-01 
 3.800000000000e-08  4.553047657279e-01  4.561591655726e-01  4.557138897373e-01  4.556511146221e-01 
 4.000000000000e-08  4.393101996988e-01  4.402039117743e-01  4.397725318010e-01  4.397038240974e-01 
 4.200000000000e-08  4.213600238378e-01  4.222648650696e-01  4.218676634837e-01  4.217950077515e-01 
 4.400000000000e-08  4.017062192664e-01  4.026001150440e-01  4.022507108953e-01  4.021760830481e-01 
 4.600000000000e-08  3.806246823193e-01  3.814913476466e-01  3.811972114525e-01  3.811224951909e-01 
 4.800000000000e-08  3.584113515642e-01  3.592394396298e-01  3.590029336291e-01  3.589298478083e-01 
 5.000000000000e-08  3.353780534718e-01  3.361601163589e-01  3.359797092692e-01  3.359097496003e-01 
 5.200000000000e-08  3.118481250591e-01  3.125796065570e-01  3.124510382641e-01  3.123854355325e-01 
 5.400000000000e-08  2.881518749413e-01  2.888302469173e-01  2.887475286058e-01  2.886872243498e-01 
 5.600000000000e-08  2.646219465281e-01  2.652460257224e-01  2.652022370456e-01  2.651478764912e-01 
 5.800000000000e-08  2.415886484361e-01  2.421580878711e-01  2.421459767990e-01  2.420979178725e-01 
 6.000000000000e-08  2.193753176807e-01  2.198902472115e-01  2.199026589836e-01  2.198609954551e-01 
 6.200000000000e-08  1.982937807337e-01  1.987545655565e-01  1.987847337658e-01  1.987493300220e-01 
 6.400000000000e-08  1.786399761623e-01  1.790470636319e-01  1.790887955679e-01  1.790593301725e-01 
 6.600000000000e-08  1.606898003012e-01  1.610436299367e-01  1.610914141748e-01  1.610674292270e-01 
 6.800000000000e-08  1.446952342720e-01  1.449961910534e-01  1.450452502416e-01  1.450262035440e-01 
 7.000000000000e-08  1.308808067215e-01  1.311292025800e-01  1.311755095757e-01  1.311608267524e-01 
 7.200000000000e-08  1.194404419308e-01  1.196365143346e-01  1.196767857054e-01  1.196659096398e-01 
 7.400000000000e-08  1.105347375439e-01  1.106786572060e-01  1.107103347271e-01  1.107027699796e-01 
 7.600000000000e-08  1.042887101291e-01  1.043805922274e-01  1.044018202873e-01  1.043971705141e-01 
 7.800000000000e-08  1.007900402194e-01  1.008299554288e-01  1.008395600023e-01  1.008375567162e-01 
 8.000000000000e-08  1.000878414714e-01  1.000758240795e-01  1.000732972942e-01  1.000738188893e-01 
 8.200000000000e-08  1.021919712163e-01  1.021280231817e-01  1.021135157046e-01  1.021165958453e-01 
 8.400000000000e-08  1.070728920851e-01  1.069569822905e-01  1.069313046010e-01  1.069371297298e-01 
 8.600000000000e-08  1.146620866474e-01  1.144941455965e-01  1.144587778068e-01  1.144676738580e-01 
 8.800000000000e-08  1.248530192473e-01  1.246329301910e-01  1.245900387306e-01  1.246024476626e-01 
 9.000000000000e-08  1.375026315301e-01  1.372302199569e-01  1.371826780998e-01  1.371991251508e-01 
 9.200000000000e-08  1.524333506677e-01  1.521083752351e-01  1.520597827029e-01  1.520808358381e-01 
 9.400000000000e-08  1.694355820916e-01  1.690577315547e-01  1.690124265953e-01  1.690386499033e-01 
 9.600000000000e-08  1.882706517425e-01  1.878395544184e-01  1.878026093784e-01  1.878345125612e-01 
 9.800000000000e-08  2.086741565290e-01  2.081894114346e-01  2.081665999599e-01  2.082045863566e-01 
 1.000000000000e-07  2.303596759694e-01  2.298209180737e-01  2.298186385701e-01  2.298629544118e-01 
 1.020000000000e-07  2.530227929053e-01  2.524298089994e-01  2.524549448580e-01  2.525056326072e-01 
 1.040000000000e-07  2.763453668537e-01  2.756982830639e-01  2.757579757065e-01  2.758148344141e-01 
 1.060000000000e-07  3.000000000000e-01  2.992995662996e-01  2.994008730446e-01  2.994634285810e-01 
 1.080000000000e-07  3.236546331456e-01  3.229026327574e-01  3.230520394428e-01  3.231195272426e-01 
 1.100000000000e-07  3.469772070946e-01  3.461770165889e-01  3.463797776768e-01  3.464511402172e-01 
 1.120000000000e-07  3.696403240306e-01  3.687976385845e-01  3.690569297873e-01  3.691308304092e-01 
 1.140000000000e-07  3.913258474787e-01  3.904495586410e-01  3.907654553492e-01  3.908403092184e-01 
 0.000000000000e+00  3.000000000005e-01  8.711583778054e-04  8.904152530540e-04  2.617093134279e-03 
 2.000000000000e-09  3.469772009165e-01  3.453823212632e-01  3.457829396683e-01  3.459252670270e-01 
 4.000000000000e-09  3.913258314609e-01  3.895788977581e-01  3.902045878100e-01  3.903541701708e-01 
 6.000000000000e-09  4.305644007384e-01  4.287693277513e-01  4.295868998621e-01  4.297296857359e-01 
 8.000000000000e-09  4.624973471009e-01  4.608402671439e-01  4.617289441690e-01  4.618492904096e-01 
 1.000000000000e-08  4.853378889803e-01  4.840830612224e-01  4.848324763747e-01  4.849157874166e-01 
 1.200000000000e-08  4.978080027715e-01  4.972293816021e-01  4.976023481784e-01  4.976378377976e-01 
 1.400000000000e-08  4.992099335843e-01  4.994636446495e-01  4.993194749415e-01  4.993023605812e-01 
 1.600000000000e-08  4.894652375413e-01  4.904914075207e-01  4.898821957234e-01  4.898147215957e-01 
 1.800000000000e-08  4.691191710395e-01  4.706735656953e-01  4.698134027731e-01  4.697043896233e-01 
 2.000000000000e-08  4.393101813799e-01  4.410989776449e-01  4.402326074207e-01  4.400956479069e-01 
 2.200000000000e-08  4.017062058925e-01  4.034993747546e-01  4.027941110867e-01  4.026449110143e-01 
 2.400000000000e-08  3.584113438835e-01  3.600733724224e-01  3.595945347359e-01  3.594480997170e-01 
 2.600000000000e-08  3.118481235013e-01  3.133161283462e-01  3.130549202201e-01  3.129232505077e-01 
 2.800000000000e-08  2.646219511809e-01  2.658741615192e-01  2.657842351476e-01  2.656749680116e-01 
 3.000000000000e-08  2.193753282834e-01  2.204084313846e-01  2.204322342281e-01  2.203483737749e-01 
 3.200000000000e-08  1.786399921217e-01  1.794568376389e-01  1.795401931562e-01  1.794807996101e-01 
 3.400000000000e-08  1.446952546950e-01  1.452994613380e-01  1.453980511813e-01  1.453595872776e-01 
 3.600000000000e-08  1.194404656749e-01  1.198346727339e-01  1.199160286525e-01  1.198939903433e-01 
 3.800000000000e-08  1.042887358653e-01  1.044744408357e-01  1.045178871921e-01  1.045083576299e-01 
 4.000000000000e-08  1.000878677601e-01  1.000657399472e-01  1.000617328680e-01  1.000625628493e-01 
 4.200000000000e-08  1.070729174550e-01  1.068430523879e-01  1.067926916044e-01  1.068041028067e-01 
 4.400000000000e-08  1.248530422790e-01  1.244149557093e-01  1.243299891155e-01  1.243545038053e-01 
 4.600000000000e-08  1.524333700724e-01  1.517857601387e-01  1.516890383918e-01  1.517307515553e-01 
 4.800000000000e-08  1.882706664346e-01  1.874112118179e-01  1.873371816853e-01  1.874005007868e-01 
 5.000000000000e-08  2.303596851266e-01  2.292855033012e-01  2.292798598401e-01  2.293679364522e-01 
 5.200000000000e-08  2.763453699638e-01  2.750553488964e-01  2.751722972772e-01  2.752854547382e-01 
 5.400000000000e-08  3.236546300351e-01  3.221557188168e-01  3.224503960813e-01  3.225849049464e-01 
 5.600000000000e-08  3.696403148726e-01  3.679606864165e-01  3.684735140384e-01  3.686210619236e-01 
 5.800000000000e-08  4.117293335645e-01  4.099406292121e-01  4.106712203542e-01  4.108193401278e-01 
 6.000000000000e-08  4.475666299266e-01  4.458116998814e-01  4.466860014532e-01  4.468195457200e-01 
 6.200000000000e-08  4.751469577205e-01  4.736548504031e-01  4.745042028882e-01  4.746076964888e-01 
 6.400000000000e-08  4.929270825450e-01  4.919802098527e-01  4.925681768986e-01  4.926286005718e-01 
 6.600000000000e-08  4.999121322396e-01  4.997425877479e-01  4.998635787170e-01  4.998729339915e-01 
 6.800000000000e-08  4.957112641347e-01  4.963727052972e-01  4.959769606598e-01  4.959339399091e-01 
 7.000000000000e-08  4.805595343258e-01  4.818869512929e-01  4.811202390750e-01  4.810305245407e-01 
 7.200000000000e-08  4.553047453055e-01  4.570107691777e-01  4.561202754425e-01  4.559953699921e-01 
 7.400000000000e-08  4.213600078790e-01  4.231736829406e-01  4.223737185691e-01  4.222286331317e-01 
 7.600000000000e-08  3.806246717177e-01  3.823638911477e-01  3.817693201986e-01  3.816197466351e-01 
 7.800000000000e-08  3.353780488204e-01  3.369476892984e-01  3.365819873019e-01  3.364416665847e-01 
 8.000000000000e-08  2.881518764997e-01  2.895131559686e-01  2.893446481474e-01  2.892235020895e-01 
 8.200000000000e-08  2.415886561179e-01  2.427311532039e-01  2.427053926456e-01  2.426087108941e-01 
 8.400000000000e-08  1.982937941087e-01  1.992182933946e-01  1.992781917456e-01  1.992068708468e-01 
 8.600000000000e-08  1.606898186208e-01  1.613999384699e-01  1.614957870466e-01  1.614473929650e-01 
 8.800000000000e-08  1.308808289610e-01  1.313797827116e-01  1.314731092664e-01  1.314434136349e-01 
 9.000000000000e-08  1.105347624590e-01  1.108245913276e-01  1.108888923780e-01  1.108735071280e-01 
 9.200000000000e-08  1.007900664158e-01  1.008718104246e-01  1.008920596456e-01  1.008878361991e-01 
 9.400000000000e-08  1.021919972283e-01  1.020660215657e-01  1.020380299820e-01  1.020439701164e-01 
 9.600000000000e-08  1.146621110191e-01  1.143282396906e-01  1.142583976231e-01  1.142759251242e-01 
 9.800000000000e-08  1.375026528985e-01  1.369600299229e-01  1.368655636870e-01  1.368981161703e-01 
 1.000000000000e-07  1.694355992606e-01  1.686824171473e-01  1.685919403466e-01  1.686439528965e-01 
 1.020000000000e-07  2.086741685378e-01  2.077076883849e-01  2.076614209114e-01  2.077368779611e-01 
 1.040000000000e-07  2.530227990825e-01  2.518405453149e-01  2.518890160297e-01  2.519898387955e-01 
 1.060000000000e-07  2.999999999992e-01  2.986037490003e-01  2.988030048515e-01  2.989276074559e-01 
 1.080000000000e-07  3.469772009161e-01  3.453823212633e-01  3.457827336627e-01  3.459251053478e-01 
 1.100000000000e-07  3.913258314605e-01  3.895788977580e-01  3.902043891561e-01  3.903540190115e-01 
 1.120000000000e-07  4.305644007386e-01  4.287693277509e-01  4.295867223726e-01  4.297295543729e-01 
 1.140000000000e-07  4.624973756011e-01  4.608402948077e-01  4.617288298965e-01  4.618492156743e-01 
 0.000000000000e+00  3.000000000005e-01  8.711577646714e-04  8.904147459053e-04  2.617092787290e-03 
 2.000000000000e-09  3.696402996252e-01  3.671293819723e-01  3.678901139724e-01  3.681110450177e-01 
 4.000000000000e-09  4.305643721543e-01  4.278770987517e-01  4.290954558285e-01  4.293100584946e-01 
 6.000000000000e-09  4.751469193768e-01  4.728963922878e-01  4.741778002479e-01  4.743343528489e-01 
 8.000000000000e-09  4.978079594676e-01  4.968990482902e-01  4.974929113440e-01  4.975481100139e-01 
 1.000000000000e-08  4.957112212906e-01  4.966598765091e-01  4.961031972122e-01  4.960406338708e-01 
 1.200000000000e-08  4.691191340173e-01  4.714366100885e-01  4.701555061964e-01  4.699933018415e-01 
 1.400000000000e-08  4.213599813128e-01  4.240862497791e-01  4.228779066874e-01  4.226607007673e-01 
 1.600000000000e-08  3.584113310978e-01  3.609132551140e-01  3.601861686035e-01  3.599661226289e-01 
 1.800000000000e-08  2.881518790953e-01  2.902006881349e-01  2.899429667551e-01  2.897604894370e-01 
 2.000000000000e-08  2.193753459351e-01  2.209299128220e-01  2.209640855370e-01  2.208374838842e-01 
 2.200000000000e-08  1.606898491196e-01  1.617587441726e-01  1.619027662054e-01  1.618295504771e-01 
 2.400000000000e-08  1.194405052032e-01  1.200349234845e-01  1.201581925140e-01  1.201247005169e-01 
 2.600000000000e-08  1.007901100265e-01  1.009156051815e-01  1.009475157643e-01  1.009408557790e-01 
 2.800000000000e-08  1.070729596897e-01  1.067310973662e-01  1.066570300645e-01  1.066737911812e-01 
 3.000000000000e-08  1.375026884709e-01  1.366920495025e-01  1.365513858279e-01  1.365996965562e-01 
 3.200000000000e-08  1.882706908927e-01  1.869855986767e-01  1.868743000634e-01  1.869685608870e-01 
 3.400000000000e-08  2.530228093650e-01  2.512549499148e-01  2.513252035142e-01  2.514755806237e-01 
 3.600000000000e-08  3.236546248549e-01  3.214138013557e-01  3.218496265274e-01  3.220507060966e-01 
 3.800000000000e-08  3.913258114666e-01  3.887138273873e-01  3.896428982764e-01  3.898671644841e-01 
 4.000000000000e-08  4.475665976206e-01  4.449356962428e-01  4.462421742422e-01  4.464432123488e-01 
 4.200000000000e-08  4.853378484061e-01  4.834336237706e-01  4.845739661883e-01  4.847005473032e-01 
 4.400000000000e-08  4.999120884754e-01  4.996111121138e-01  4.998325212659e-01  4.998485947014e-01 
 4.600000000000e-08  4.894651960644e-01  4.909692383027e-01  4.900845080498e-01  4.899850884765e-01 
 4.800000000000e-08  4.553047113079e-01  4.578586308318e-01  4.565237570435e-01  4.563374239605e-01 
 5.000000000000e-08  4.017061836286e-01  4.044039632883e-01  4.033365149151e-01  4.031127839277e-01 
 5.200000000000e-08  3.353780410772e-01  3.377408837367e-01  3.371847015716e-01  3.369736601657e-01 
 5.400000000000e-08  2.646219589274e-01  2.665064236521e-01  2.663680760399e-01  2.662033299827e-01 
 5.600000000000e-08  1.982938163754e-01  1.996849968124e-01  1.997740393164e-01  1.996662979917e-01 
 5.800000000000e-08  1.446952886952e-01  1.456050584583e-01  1.457537248372e-01  1.456954598390e-01 
 6.000000000000e-08  1.105348039368e-01  1.109725437669e-01  1.110703718730e-01  1.110469105591e-01 
 6.200000000000e-08  1.000879115243e-01  1.000575873959e-01  1.000531402669e-01  1.000540655387e-01 
 6.400000000000e-08  1.146621515922e-01  1.141643620004e-01  1.140609754150e-01  1.140868694998e-01 
 6.600000000000e-08  1.524334023763e-01  1.514654900180e-01  1.513210059625e-01  1.513830012073e-01 
 6.800000000000e-08  2.086741885294e-01  2.072289550686e-01  2.071587067903e-01  2.072711114708e-01 
 7.000000000000e-08  2.763453751404e-01  2.744164998286e-01  2.745881540175e-01  2.747570846680e-01 
 7.200000000000e-08  3.469771906305e-01  3.445930256088e-01  3.451862097775e-01  3.453992074819e-01 
 7.400000000000e-08  4.117293091037e-01  4.090537463341e-01  4.101402930986e-01  4.103626165213e-01 
 7.600000000000e-08  4.624973115264e-01  4.600073046404e-01  4.613402281428e-01  4.615218300590e-01 
 7.800000000000e-08  4.929270403093e-01  4.914746294135e-01  4.923824440105e-01  4.924748991093e-01 
 8.000000000000e-08  4.992098899735e-01  4.995428194982e-01  4.993674916277e-01  4.993438544583e-01 
 8.200000000000e-08  4.805594947988e-01  4.825259245694e-01  4.813949407475e-01  4.812619456375e-01 
 8.400000000000e-08  4.393101508839e-01  4.419948614099e-01  4.406905798887e-01  4.404857961314e-01 
 8.600000000000e-08  3.806246540692e-01  3.832423779894e-01  3.823409132973e-01  3.821163707086e-01 
 8.800000000000e-08  3.118481209094e-01  3.140577921006e-01  3.136600054035e-01  3.134617579988e-01 
 9.000000000000e-08  2.415886689068e-01  2.433078994505e-01  2.432668463423e-01  2.431209815746e-01 
 9.200000000000e-08  1.786400186907e-01  1.798693227503e-01  1.799943522729e-01  1.799045403824e-01 
 9.400000000000e-08  1.308808659854e-01  1.316325565607e-01  1.317735885827e-01  1.317285475256e-01 
 9.600000000000e-08  1.042887787104e-01  1.045702576748e-01  1.046369553572e-01  1.046223107493e-01 
 9.800000000000e-08  1.021920405317e-01  1.020059630618e-01  1.019655111982e-01  1.019740918010e-01 
 1.000000000000e-07  1.248530806208e-01  1.241990866231e-01  1.240727531903e-01  1.241090828794e-01 
 1.020000000000e-07  1.694356278423e-01  1.683096191542e-01  1.681741273825e-01  1.682514988903e-01 
 1.040000000000e-07  2.303597003705e-01  2.287533905065e-01  2.287430890867e-01  2.288744130592e-01 
 1.060000000000e-07  2.999999999974e-01  2.979124701133e-01  2.982064167593e-01  2.983925559863e-01 
 1.080000000000e-07  3.696402996255e-01  3.671293819725e-01  3.678898082920e-01  3.681108086774e-01 
 1.100000000000e-07  4.305643721542e-01  4.278770987520e-01  4.290951889195e-01  4.293098609029e-01 
 1.120000000000e-07  4.751469193770e-01  4.728963922875e-01  4.741776177614e-01  4.743342223101e-01 
 1.140000000000e-07  4.978080374644e-01  4.968991244606e-01  4.974929262635e-01  4.975481442621e-01 
 0.000000000000e+00  2.999999999982e-01  8.711571513942e-04  8.904142386494e-04  2.617092440950e-03 
 2.000000000000e-09  3.913257835011e-01  3.878542854771e-01  3.890808215556e-01  3.893796169499e-01 
 4.000000000000e-09  4.624972617711e-01  4.591723982817e-01  4.609489602954e-01  4.611924020950e-01 
 6.000000000000e-09  4.978078989026e-01  4.965432578246e-01  4.973791062268e-01  4.974553096392e-01 
 8.000000000000e-09  4.894651380560e-01  4.914215751992e-01  4.902825839036e-01  4.901524610655e-01 
 1.000000000000e-08  4.393101082329e-01  4.428909212342e-01  4.411458956060e-01  4.408738717600e-01 
 1.200000000000e-08  3.584113132173e-01  3.617591859255e-01  3.607777984565e-01  3.604838918538e-01 
 1.400000000000e-08  2.646219697633e-01  2.671428820739e-01  2.669534573779e-01  2.667327093128e-01 
 1.600000000000e-08  1.786400558517e-01  1.802845442950e-01  1.804508436597e-01  1.803301703738e-01 
 1.800000000000e-08  1.194405604882e-01  1.202372743417e-01  1.204032800169e-01  1.203580395214e-01 
 2.000000000000e-08  1.000879727328e-01  1.000513662819e-01  1.000475228121e-01  1.000483301936e-01 
 2.200000000000e-08  1.248531342451e-01  1.239853150634e-01  1.238185618177e-01  1.238663997695e-01 
 2.400000000000e-08  1.882707250984e-01  1.865626902639e-01  1.864139640320e-01  1.865386972636e-01 
 2.600000000000e-08  2.763453823791e-01  2.737816711121e-01  2.740058476641e-01  2.742299762383e-01 
 2.800000000000e-08  3.696402782992e-01  3.663036339537e-01  3.673064594293e-01  3.676005675050e-01 
 3.000000000000e-08  4.475665524365e-01  4.440612313938e-01  4.457960538762e-01  4.460650434894e-01 
 3.200000000000e-08  4.929269812383e-01  4.909497650522e-01  4.921926593326e-01  4.923183131170e-01 
 3.400000000000e-08  4.957111613691e-01  4.969168273344e-01  4.962250861072e-01  4.961442840646e-01 
 3.600000000000e-08  4.553046637594e-01  4.587016703676e-01  4.569243577853e-01  4.566773038904e-01 
 3.800000000000e-08  3.806246293872e-01  3.841268562974e-01  3.829117455179e-01  3.826121860335e-01 
 4.000000000000e-08  2.881518827269e-01  2.908929294945e-01  2.905428691190e-01  2.902984977011e-01 
 4.200000000000e-08  1.982938475189e-01  2.001547089553e-01  2.002723540464e-01  2.001276737892e-01 
 4.400000000000e-08  1.308809177679e-01  1.318875348471e-01  1.320768571816e-01  1.320161425483e-01 
